<Qucs Dataset 0.0.22>
<indep frequency 83>
1.000000000000e+01
1.096478196143e+01
1.202264434617e+01
1.318256738556e+01
1.445439770746e+01
1.584893192461e+01
1.737800828749e+01
1.905460717963e+01
2.089296130854e+01
2.290867652768e+01
2.511886431510e+01
2.754228703338e+01
3.019951720402e+01
3.311311214826e+01
3.630780547701e+01
3.981071705535e+01
4.365158322402e+01
4.786300923226e+01
5.248074602498e+01
5.754399373372e+01
6.309573444802e+01
6.918309709189e+01
7.585775750292e+01
8.317637711027e+01
9.120108393559e+01
1.000000000000e+02
1.096478196143e+02
1.202264434617e+02
1.318256738556e+02
1.445439770746e+02
1.584893192461e+02
1.737800828749e+02
1.905460717963e+02
2.089296130854e+02
2.290867652768e+02
2.511886431510e+02
2.754228703338e+02
3.019951720402e+02
3.311311214826e+02
3.630780547701e+02
3.981071705535e+02
4.365158322402e+02
4.786300923226e+02
5.248074602498e+02
5.754399373372e+02
6.309573444802e+02
6.918309709189e+02
7.585775750292e+02
8.317637711027e+02
9.120108393559e+02
1.000000000000e+03
1.096478196143e+03
1.202264434617e+03
1.318256738556e+03
1.445439770746e+03
1.584893192461e+03
1.737800828749e+03
1.905460717963e+03
2.089296130854e+03
2.290867652768e+03
2.511886431510e+03
2.754228703338e+03
3.019951720402e+03
3.311311214826e+03
3.630780547701e+03
3.981071705535e+03
4.365158322402e+03
4.786300923226e+03
5.248074602498e+03
5.754399373372e+03
6.309573444802e+03
6.918309709189e+03
7.585775750292e+03
8.317637711027e+03
9.120108393559e+03
1.000000000000e+04
1.096478196143e+04
1.202264434617e+04
1.318256738556e+04
1.445439770746e+04
1.584893192461e+04
1.737800828749e+04
1.905460717963e+04
</indep>
<dep ac.v(endv) frequency>
4.159236639971e-01-j6.617431665938e-18
4.159236639971e-01+j0.000000000000e+00
4.159236639971e-01+j0.000000000000e+00
4.159236639971e-01+j1.323486333188e-17
4.159236639971e-01+j0.000000000000e+00
4.159236639971e-01+j1.323486333188e-17
4.159236639971e-01-j1.323486333188e-17
4.159236639971e-01-j2.646972666375e-17
4.159236639971e-01+j3.970458999321e-17
4.159236639971e-01+j0.000000000000e+00
4.159236639971e-01+j0.000000000000e+00
4.159236639971e-01+j2.646972666375e-17
4.159236639971e-01+j2.646972666375e-17
4.159236639971e-01+j0.000000000000e+00
4.159236639971e-01+j2.646972666375e-17
4.159236639971e-01-j2.646972666375e-17
4.159236639971e-01+j2.646972666375e-17
4.159236639971e-01-j5.293945332751e-17
4.159236639971e-01+j2.646972666375e-17
4.159236639971e-01+j5.293945332751e-17
4.159236639971e-01-j5.293945332751e-17
4.159236639971e-01+j0.000000000000e+00
4.159236639971e-01+j2.646972666375e-17
4.159236639971e-01+j2.646972666375e-17
4.159236639971e-01+j0.000000000000e+00
4.159236639971e-01+j0.000000000000e+00
4.159236639971e-01-j7.940917998641e-17
4.159236639971e-01-j7.940917998641e-17
4.159236639971e-01-j2.646972666375e-17
4.159236639971e-01+j2.646972666375e-17
4.159236639971e-01+j5.293945332751e-17
4.159236639971e-01+j0.000000000000e+00
4.159236639971e-01+j0.000000000000e+00
4.159236639971e-01+j0.000000000000e+00
4.159236639971e-01-j2.646972666375e-17
4.159236639971e-01-j5.293945332751e-17
4.159236639971e-01+j2.646972666375e-17
4.159236639971e-01-j2.646972666375e-17
4.159236639971e-01-j2.646972666375e-17
4.159236639971e-01-j5.293945332751e-17
4.159236639971e-01+j0.000000000000e+00
4.159236639971e-01+j5.293945332751e-17
4.159236639971e-01-j2.646972666375e-17
4.159236639971e-01+j0.000000000000e+00
4.159236639971e-01-j7.940917998641e-17
4.159236639971e-01+j2.646972666375e-17
4.159236639971e-01+j0.000000000000e+00
4.159236639971e-01+j5.293945332751e-17
4.159236639971e-01+j2.646972666375e-17
4.159236639971e-01+j0.000000000000e+00
4.159236639971e-01+j0.000000000000e+00
4.159236639971e-01+j2.646972666375e-17
4.159236639971e-01+j0.000000000000e+00
4.159236639971e-01+j0.000000000000e+00
4.159236639971e-01-j2.646972666375e-17
4.159236639971e-01-j5.293945332751e-17
4.159236639971e-01+j0.000000000000e+00
4.159236639971e-01-j5.293945332751e-17
4.159236639971e-01+j0.000000000000e+00
4.159236639971e-01+j2.646972666375e-17
4.159236639971e-01+j1.323486333188e-17
4.159236639971e-01+j1.323486333188e-17
4.159236639971e-01+j1.323486333188e-17
4.159236639971e-01+j1.323486333188e-17
4.159236639971e-01-j1.323486333188e-17
4.159236639971e-01+j1.323486333188e-17
4.159236639971e-01+j1.985229499660e-17
4.159236639971e-01+j0.000000000000e+00
4.159236639971e-01+j0.000000000000e+00
4.159236639971e-01+j6.617431665938e-18
4.159236639971e-01+j6.617431665938e-18
4.159236639971e-01+j0.000000000000e+00
4.159236639971e-01-j6.617431665938e-18
4.159236639971e-01+j3.308715832969e-18
4.159236639971e-01+j1.323486333188e-17
4.159236639971e-01+j6.617431665938e-18
4.159236639971e-01-j3.308715832969e-18
4.159236639971e-01-j6.617431665938e-18
4.159236639971e-01-j3.308715832969e-18
4.159236639971e-01+j9.926147498302e-18
4.159236639971e-01+j0.000000000000e+00
4.159236639971e-01+j4.963073749151e-18
4.159236639971e-01+j0.000000000000e+00
</dep>
<dep ac.v(outputv) frequency>
4.159244958557e-01-j6.617444900424e-18
4.159244958557e-01+j0.000000000000e+00
4.159244958557e-01+j0.000000000000e+00
4.159244958557e-01+j1.323488980085e-17
4.159244958557e-01+j0.000000000000e+00
4.159244958557e-01+j1.323488980085e-17
4.159244958557e-01-j1.323488980085e-17
4.159244958557e-01-j2.646977960170e-17
4.159244958557e-01+j3.970466940255e-17
4.159244958557e-01+j0.000000000000e+00
4.159244958557e-01+j0.000000000000e+00
4.159244958557e-01+j2.646977960170e-17
4.159244958557e-01+j2.646977960170e-17
4.159244958557e-01+j0.000000000000e+00
4.159244958557e-01+j2.646977960170e-17
4.159244958557e-01-j2.646977960170e-17
4.159244958557e-01+j2.646977960170e-17
4.159244958557e-01-j5.293955920339e-17
4.159244958557e-01+j2.646977960170e-17
4.159244958557e-01+j5.293955920339e-17
4.159244958557e-01-j5.293955920339e-17
4.159244958557e-01+j0.000000000000e+00
4.159244958557e-01+j2.646977960170e-17
4.159244958557e-01+j2.646977960170e-17
4.159244958557e-01+j0.000000000000e+00
4.159244958557e-01+j0.000000000000e+00
4.159244958557e-01-j7.940933880509e-17
4.159244958557e-01-j7.940933880509e-17
4.159244958557e-01-j2.646977960170e-17
4.159244958557e-01+j2.646977960170e-17
4.159244958557e-01+j5.293955920339e-17
4.159244958557e-01+j0.000000000000e+00
4.159244958557e-01+j0.000000000000e+00
4.159244958557e-01+j0.000000000000e+00
4.159244958557e-01-j2.646977960170e-17
4.159244958557e-01-j5.293955920339e-17
4.159244958557e-01+j2.646977960170e-17
4.159244958557e-01-j2.646977960170e-17
4.159244958557e-01-j2.646977960170e-17
4.159244958557e-01-j5.293955920339e-17
4.159244958557e-01+j0.000000000000e+00
4.159244958557e-01+j5.293955920339e-17
4.159244958557e-01-j2.646977960170e-17
4.159244958557e-01+j0.000000000000e+00
4.159244958557e-01-j7.940933880509e-17
4.159244958557e-01+j2.646977960170e-17
4.159244958557e-01+j0.000000000000e+00
4.159244958557e-01+j5.293955920339e-17
4.159244958557e-01+j2.646977960170e-17
4.159244958557e-01+j0.000000000000e+00
4.159244958557e-01+j0.000000000000e+00
4.159244958557e-01+j2.646977960170e-17
4.159244958557e-01+j0.000000000000e+00
4.159244958557e-01+j0.000000000000e+00
4.159244958557e-01-j2.646977960170e-17
4.159244958557e-01-j5.293955920339e-17
4.159244958557e-01+j0.000000000000e+00
4.159244958557e-01-j5.293955920339e-17
4.159244958557e-01+j0.000000000000e+00
4.159244958557e-01+j2.646977960170e-17
4.159244958557e-01+j1.323488980085e-17
4.159244958557e-01+j1.323488980085e-17
4.159244958557e-01+j1.323488980085e-17
4.159244958557e-01+j1.323488980085e-17
4.159244958557e-01-j1.323488980085e-17
4.159244958557e-01+j1.323488980085e-17
4.159244958557e-01+j1.985233470127e-17
4.159244958557e-01+j0.000000000000e+00
4.159244958557e-01+j0.000000000000e+00
4.159244958557e-01+j6.617444900424e-18
4.159244958557e-01+j6.617444900424e-18
4.159244958557e-01+j0.000000000000e+00
4.159244958557e-01-j6.617444900424e-18
4.159244958557e-01+j3.308722450212e-18
4.159244958557e-01+j1.323488980085e-17
4.159244958557e-01+j6.617444900424e-18
4.159244958557e-01-j3.308722450212e-18
4.159244958557e-01-j6.617444900424e-18
4.159244958557e-01-j3.308722450212e-18
4.159244958557e-01+j9.926167350636e-18
4.159244958557e-01+j0.000000000000e+00
4.159244958557e-01+j4.963083675318e-18
4.159244958557e-01+j0.000000000000e+00
</dep>
<dep ac.v(outputv1) frequency>
-4.159253277047e-01+j0.000000000000e+00
-4.159253277047e-01+j0.000000000000e+00
-4.159253277047e-01+j0.000000000000e+00
-4.159253277047e-01+j0.000000000000e+00
-4.159253277047e-01+j0.000000000000e+00
-4.159253277047e-01+j0.000000000000e+00
-4.159253277047e-01+j0.000000000000e+00
-4.159253277047e-01+j0.000000000000e+00
-4.159253277047e-01+j0.000000000000e+00
-4.159253277047e-01+j0.000000000000e+00
-4.159253277047e-01+j0.000000000000e+00
-4.159253277047e-01+j0.000000000000e+00
-4.159253277047e-01+j0.000000000000e+00
-4.159253277047e-01+j0.000000000000e+00
-4.159253277047e-01+j0.000000000000e+00
-4.159253277047e-01+j0.000000000000e+00
-4.159253277047e-01+j0.000000000000e+00
-4.159253277047e-01+j0.000000000000e+00
-4.159253277047e-01+j0.000000000000e+00
-4.159253277047e-01+j0.000000000000e+00
-4.159253277047e-01+j0.000000000000e+00
-4.159253277047e-01+j0.000000000000e+00
-4.159253277047e-01+j0.000000000000e+00
-4.159253277047e-01+j0.000000000000e+00
-4.159253277047e-01+j0.000000000000e+00
-4.159253277047e-01+j0.000000000000e+00
-4.159253277047e-01+j0.000000000000e+00
-4.159253277047e-01+j0.000000000000e+00
-4.159253277047e-01+j0.000000000000e+00
-4.159253277047e-01+j0.000000000000e+00
-4.159253277047e-01+j0.000000000000e+00
-4.159253277047e-01+j0.000000000000e+00
-4.159253277047e-01+j0.000000000000e+00
-4.159253277047e-01+j0.000000000000e+00
-4.159253277047e-01+j0.000000000000e+00
-4.159253277047e-01+j0.000000000000e+00
-4.159253277047e-01+j0.000000000000e+00
-4.159253277047e-01+j0.000000000000e+00
-4.159253277047e-01+j0.000000000000e+00
-4.159253277047e-01+j0.000000000000e+00
-4.159253277047e-01+j0.000000000000e+00
-4.159253277047e-01+j0.000000000000e+00
-4.159253277047e-01+j0.000000000000e+00
-4.159253277047e-01+j0.000000000000e+00
-4.159253277047e-01+j0.000000000000e+00
-4.159253277047e-01+j0.000000000000e+00
-4.159253277047e-01+j0.000000000000e+00
-4.159253277047e-01+j0.000000000000e+00
-4.159253277047e-01+j0.000000000000e+00
-4.159253277047e-01+j0.000000000000e+00
-4.159253277047e-01+j0.000000000000e+00
-4.159253277047e-01+j0.000000000000e+00
-4.159253277047e-01+j0.000000000000e+00
-4.159253277047e-01+j0.000000000000e+00
-4.159253277047e-01+j0.000000000000e+00
-4.159253277047e-01+j0.000000000000e+00
-4.159253277047e-01+j0.000000000000e+00
-4.159253277047e-01+j0.000000000000e+00
-4.159253277047e-01+j0.000000000000e+00
-4.159253277047e-01+j0.000000000000e+00
-4.159253277047e-01+j0.000000000000e+00
-4.159253277047e-01+j0.000000000000e+00
-4.159253277047e-01+j0.000000000000e+00
-4.159253277047e-01+j0.000000000000e+00
-4.159253277047e-01+j0.000000000000e+00
-4.159253277047e-01+j0.000000000000e+00
-4.159253277047e-01+j0.000000000000e+00
-4.159253277047e-01+j0.000000000000e+00
-4.159253277047e-01+j0.000000000000e+00
-4.159253277047e-01+j0.000000000000e+00
-4.159253277047e-01+j0.000000000000e+00
-4.159253277047e-01+j0.000000000000e+00
-4.159253277047e-01+j0.000000000000e+00
-4.159253277047e-01+j0.000000000000e+00
-4.159253277047e-01+j0.000000000000e+00
-4.159253277047e-01+j0.000000000000e+00
-4.159253277047e-01+j0.000000000000e+00
-4.159253277047e-01+j0.000000000000e+00
-4.159253277047e-01+j0.000000000000e+00
-4.159253277047e-01+j0.000000000000e+00
-4.159253277047e-01+j0.000000000000e+00
-4.159253277047e-01+j0.000000000000e+00
-4.159253277047e-01+j0.000000000000e+00
</dep>
<dep ac.v(probepoint) frequency>
-4.159244958585e-07-j9.757819552370e-19
-4.159244958446e-07-j4.336808689942e-19
-4.159244958515e-07-j2.168404344971e-19
-4.159244958515e-07+j1.951563910474e-18
-4.159244958585e-07+j2.168404344971e-19
-4.159244958515e-07+j1.517883041480e-18
-4.159244958585e-07-j1.517883041480e-18
-4.159244958585e-07-j2.602085213965e-18
-4.159244958654e-07+j4.770489558936e-18
-4.159244958377e-07-j4.336808689942e-19
-4.159244958724e-07+j4.336808689942e-19
-4.159244958585e-07+j4.336808689942e-18
-4.159244958585e-07+j3.903127820948e-18
-4.159244958585e-07+j8.673617379884e-19
-4.159244958654e-07+j3.903127820948e-18
-4.159244958585e-07-j2.602085213965e-18
-4.159244958654e-07+j4.336808689942e-18
-4.159244958446e-07-j7.806255641896e-18
-4.159244958515e-07+j3.469446951954e-18
-4.159244958307e-07+j3.469446951954e-18
-4.159244958446e-07-j7.806255641896e-18
-4.159244958515e-07-j1.734723475977e-18
-4.159244958585e-07+j3.469446951954e-18
-4.159244958585e-07+j2.602085213965e-18
-4.159244958585e-07+j0.000000000000e+00
-4.159244958515e-07-j1.734723475977e-18
-4.159244958793e-07-j6.938893903907e-18
-4.159244958585e-07-j6.938893903907e-18
-4.159244958585e-07-j1.734723475977e-18
-4.159244958585e-07+j3.469446951954e-18
-4.159244958446e-07+j3.469446951954e-18
-4.159244958515e-07-j3.469446951954e-18
-4.159244958515e-07+j3.469446951954e-18
-4.159244958585e-07+j3.469446951954e-18
-4.159244958724e-07+j0.000000000000e+00
-4.159244958585e-07-j6.938893903907e-18
-4.159244958724e-07+j1.040834085586e-17
-4.159244958446e-07-j6.938893903907e-18
-4.159244958585e-07+j3.469446951954e-18
-4.159244958515e-07-j1.040834085586e-17
-4.159244958654e-07+j3.469446951954e-18
-4.159244958446e-07+j3.469446951954e-18
-4.159244958585e-07+j0.000000000000e+00
-4.159244958585e-07+j0.000000000000e+00
-4.159244958619e-07-j3.469446951954e-18
-4.159244958550e-07-j3.469446951954e-18
-4.159244958550e-07+j0.000000000000e+00
-4.159244958515e-07+j3.469446951954e-18
-4.159244958585e-07-j3.469446951954e-18
-4.159244958550e-07+j0.000000000000e+00
-4.159244958533e-07+j0.000000000000e+00
-4.159244958533e-07+j6.938893903907e-18
-4.159244958567e-07+j0.000000000000e+00
-4.159244958559e-07+j3.469446951954e-18
-4.159244958550e-07+j0.000000000000e+00
-4.159244958559e-07+j0.000000000000e+00
-4.159244958550e-07+j0.000000000000e+00
-4.159244958576e-07+j1.734723475977e-18
-4.159244958559e-07-j3.469446951954e-18
-4.159244958550e-07+j0.000000000000e+00
-4.159244958563e-07+j1.734723475977e-18
-4.159244958563e-07+j3.469446951954e-18
-4.159244958552e-07+j0.000000000000e+00
-4.159244958557e-07+j0.000000000000e+00
-4.159244958557e-07-j8.673617379884e-19
-4.159244958552e-07-j3.469446951954e-18
-4.159244958557e-07+j0.000000000000e+00
-4.159244958558e-07+j8.673617379884e-19
-4.159244958559e-07+j0.000000000000e+00
-4.159244958554e-07+j0.000000000000e+00
-4.159244958557e-07+j0.000000000000e+00
-4.159244958558e-07-j8.673617379884e-19
-4.159244958558e-07-j8.673617379884e-19
-4.159244958557e-07+j4.336808689942e-19
-4.159244958557e-07+j8.673617379884e-19
-4.159244958557e-07+j4.336808689942e-19
-4.159244958557e-07+j0.000000000000e+00
-4.159244958557e-07+j4.336808689942e-19
-4.159244958557e-07+j0.000000000000e+00
-4.159244958557e-07+j0.000000000000e+00
-4.159244958557e-07+j8.673617379884e-19
-4.159244958557e-07+j0.000000000000e+00
-4.159244958557e-07-j2.168404344971e-19
</dep>
<dep ac.v(subv) frequency>
4.026635991510e-01-j1.033888186465e-01
3.998914937514e-01-j1.133152653473e-01
3.965207406220e-01-j1.241712161972e-01
3.924149861316e-01-j1.360299677611e-01
3.874047645702e-01-j1.489624391202e-01
3.812793294340e-01-j1.630315839499e-01
3.737769560042e-01-j1.782833420449e-01
3.645740608603e-01-j1.947323526696e-01
3.532742766584e-01-j2.123399567139e-01
3.394001437779e-01-j2.309813124033e-01
3.223927669699e-01-j2.503981488851e-01
3.016290606555e-01-j2.701347566793e-01
2.764720027239e-01-j2.894591838839e-01
2.463748419637e-01-j3.072822890988e-01
2.110597354445e-01-j3.221072446777e-01
1.707731739762e-01-j3.320695408028e-01
1.265706145733e-01-j3.351465749727e-01
8.050260894402e-02-j3.295888454788e-01
3.551434607422e-02-j3.145111189372e-01
-5.068937351574e-03-j2.904064662432e-01
-3.836406120450e-02-j2.592575516445e-01
-6.268903119514e-02-j2.240856098750e-01
-7.786939482562e-02-j1.881321942142e-01
-8.499377705008e-02-j1.540929913040e-01
-8.584990163057e-02-j1.237166420237e-01
-8.236298901902e-02-j9.779929453931e-02
-7.622672764633e-02-j7.641375978566e-02
-6.874871573194e-02-j5.919420394704e-02
-6.084376273344e-02-j4.557154982509e-02
-5.309843679047e-02-j3.492912793389e-02
-4.585436422935e-02-j2.668850459954e-02
-3.928403013059e-02-j2.034733360703e-02
-3.345015761448e-02-j1.548903676288e-02
-2.834841145409e-02-j1.177814688290e-02
-2.393641022826e-02-j8.949662457020e-03
-2.015259439744e-02-j6.796920643790e-03
-1.692801813049e-02-j5.160149655944e-03
-1.419339861555e-02-j3.916559000133e-03
-1.188308133652e-02-j2.972161726834e-03
-9.937052416212e-03-j2.255218062206e-03
-8.301748589570e-03-j1.711074364711e-03
-6.930152801794e-03-j1.298148807190e-03
-5.781487179026e-03-j9.848337995497e-04
-4.820698959972e-03-j7.471186200442e-04
-4.017859437126e-03-j5.667714623829e-04
-3.347547384999e-03-j4.299527347313e-04
-2.788257577179e-03-j3.261591230199e-04
-2.321855633449e-03-j2.474204712162e-04
-1.933088519513e-03-j1.876894447275e-04
-1.609152879738e-03-j1.423779610012e-04
-1.339319281691e-03-j1.080052307725e-04
-1.114608263319e-03-j8.193060973389e-05
-9.275130709361e-04-j6.215086165562e-05
-7.717636897276e-04-j4.714632256783e-05
-6.421268985823e-04-j3.576418117844e-05
-5.342374377912e-04-j2.712992584872e-05
-4.444558432331e-04-j2.058016386937e-05
-3.697490017735e-04-j1.561165631847e-05
-3.075899772417e-04-j1.184265528868e-05
-2.558741208916e-04-j8.983574251612e-06
-2.128489029599e-04-j6.814738769494e-06
-1.770552784127e-04-j5.169508429637e-06
-1.472787301919e-04-j3.921473388950e-06
-1.225084196596e-04-j2.974741889666e-06
-1.019031202229e-04-j2.256572549815e-06
-8.476282051795e-05-j1.711785364679e-06
-7.050506236202e-05-j1.298522007713e-06
-5.864523006827e-05-j9.850296845714e-07
-4.878013544866e-05-j7.472214341041e-07
-4.057435033429e-05-j5.668254259405e-07
-3.374882872437e-05-j4.299810583643e-07
-2.807143636846e-05-j3.261739892422e-07
-2.334906895900e-05-j2.474282741556e-07
-1.942109310838e-05-j1.876935403920e-07
-1.615388856340e-05-j1.423801108193e-07
-1.343630707583e-05-j1.080063592507e-07
-1.117589418952e-05-j8.193120211630e-08
-9.295745922369e-06-j6.215117263556e-08
-7.731893758144e-06-j4.714648583107e-08
-6.431129224569e-06-j3.576426689714e-08
-5.349194212051e-06-j2.712997085781e-08
-4.449275577495e-06-j2.058018750516e-08
-3.700752893463e-06-j1.561166873197e-08
</dep>
<dep ac.odb frequency>
-7.619710022532e+00+j0.000000000000e+00
-7.619710022532e+00+j0.000000000000e+00
-7.619710022532e+00+j0.000000000000e+00
-7.619710022532e+00+j0.000000000000e+00
-7.619710022532e+00+j0.000000000000e+00
-7.619710022532e+00+j0.000000000000e+00
-7.619710022532e+00+j0.000000000000e+00
-7.619710022532e+00+j0.000000000000e+00
-7.619710022532e+00+j0.000000000000e+00
-7.619710022532e+00+j0.000000000000e+00
-7.619710022532e+00+j0.000000000000e+00
-7.619710022532e+00+j0.000000000000e+00
-7.619710022532e+00+j0.000000000000e+00
-7.619710022532e+00+j0.000000000000e+00
-7.619710022532e+00+j0.000000000000e+00
-7.619710022532e+00+j0.000000000000e+00
-7.619710022532e+00+j0.000000000000e+00
-7.619710022532e+00+j0.000000000000e+00
-7.619710022532e+00+j0.000000000000e+00
-7.619710022532e+00+j0.000000000000e+00
-7.619710022532e+00+j0.000000000000e+00
-7.619710022532e+00+j0.000000000000e+00
-7.619710022532e+00+j0.000000000000e+00
-7.619710022532e+00+j0.000000000000e+00
-7.619710022532e+00+j0.000000000000e+00
-7.619710022532e+00+j0.000000000000e+00
-7.619710022532e+00+j0.000000000000e+00
-7.619710022532e+00+j0.000000000000e+00
-7.619710022532e+00+j0.000000000000e+00
-7.619710022532e+00+j0.000000000000e+00
-7.619710022532e+00+j0.000000000000e+00
-7.619710022532e+00+j0.000000000000e+00
-7.619710022532e+00+j0.000000000000e+00
-7.619710022532e+00+j0.000000000000e+00
-7.619710022532e+00+j0.000000000000e+00
-7.619710022532e+00+j0.000000000000e+00
-7.619710022532e+00+j0.000000000000e+00
-7.619710022532e+00+j0.000000000000e+00
-7.619710022532e+00+j0.000000000000e+00
-7.619710022532e+00+j0.000000000000e+00
-7.619710022532e+00+j0.000000000000e+00
-7.619710022532e+00+j0.000000000000e+00
-7.619710022532e+00+j0.000000000000e+00
