<Qucs Dataset 0.0.22>
<indep frequency 83>
1.000000000000e+01
1.096478196143e+01
1.202264434617e+01
1.318256738556e+01
1.445439770746e+01
1.584893192461e+01
1.737800828749e+01
1.905460717963e+01
2.089296130854e+01
2.290867652768e+01
2.511886431510e+01
2.754228703338e+01
3.019951720402e+01
3.311311214826e+01
3.630780547701e+01
3.981071705535e+01
4.365158322402e+01
4.786300923226e+01
5.248074602498e+01
5.754399373372e+01
6.309573444802e+01
6.918309709189e+01
7.585775750292e+01
8.317637711027e+01
9.120108393559e+01
1.000000000000e+02
1.096478196143e+02
1.202264434617e+02
1.318256738556e+02
1.445439770746e+02
1.584893192461e+02
1.737800828749e+02
1.905460717963e+02
2.089296130854e+02
2.290867652768e+02
2.511886431510e+02
2.754228703338e+02
3.019951720402e+02
3.311311214826e+02
3.630780547701e+02
3.981071705535e+02
4.365158322402e+02
4.786300923226e+02
5.248074602498e+02
5.754399373372e+02
6.309573444802e+02
6.918309709189e+02
7.585775750292e+02
8.317637711027e+02
9.120108393559e+02
1.000000000000e+03
1.096478196143e+03
1.202264434617e+03
1.318256738556e+03
1.445439770746e+03
1.584893192461e+03
1.737800828749e+03
1.905460717963e+03
2.089296130854e+03
2.290867652768e+03
2.511886431510e+03
2.754228703338e+03
3.019951720402e+03
3.311311214826e+03
3.630780547701e+03
3.981071705535e+03
4.365158322402e+03
4.786300923226e+03
5.248074602498e+03
5.754399373372e+03
6.309573444802e+03
6.918309709189e+03
7.585775750292e+03
8.317637711027e+03
9.120108393559e+03
1.000000000000e+04
1.096478196143e+04
1.202264434617e+04
1.318256738556e+04
1.445439770746e+04
1.584893192461e+04
1.737800828749e+04
1.905460717963e+04
</indep>
<dep ac.v(endv) frequency>
3.355644394760e-01+j4.301330582856e-16
3.355644395051e-01+j1.389660649891e-16
3.355644395051e-01+j1.985229499660e-16
3.355644394760e-01-j6.617431665534e-16
3.355644395051e-01-j1.270546879783e-15
3.355644394760e-01+j2.646972666375e-17
3.355644394760e-01-j6.220385765602e-16
3.355644394760e-01+j1.588183599728e-16
3.355644395051e-01+j3.308715832767e-16
3.355644395051e-01+j3.044018566146e-16
3.355644395051e-01+j1.548479009735e-15
3.355644394760e-01-j2.117578132971e-15
3.355644394760e-01-j1.297016606548e-15
3.355644395051e-01-j2.382275399592e-16
3.355644395051e-01-j8.205615265263e-16
3.355644394760e-01+j1.588183599728e-16
3.355644395051e-01-j1.005849613161e-15
3.355644395051e-01-j2.117578133100e-16
3.355644394760e-01-j7.411523465399e-16
3.355644394760e-01-j1.429365239755e-15
3.355644394760e-01-j5.029248065806e-16
3.355644394760e-01-j9.264404332265e-16
3.355644394760e-01+j5.293945332751e-17
3.355644394760e-01+j1.217607426458e-15
3.355644395051e-01-j4.499853532822e-16
3.355644394760e-01-j8.205615265263e-16
3.355644394760e-01-j1.852880866350e-16
3.355644394760e-01-j1.217607426458e-15
3.355644395051e-01-j5.558642599566e-16
3.355644394760e-01-j2.355805672930e-15
3.355644394760e-01-j1.323486333107e-16
3.355644394760e-01+j5.823339865670e-16
3.355644394760e-01+j6.352734398913e-16
3.355644394760e-01-j1.323486333107e-16
3.355644394760e-01+j5.558642599566e-16
3.355644394760e-01+j1.005849613161e-15
3.355644394760e-01+j2.646972666214e-16
3.355644395051e-01-j4.235156266201e-16
3.355644394760e-01-j8.999707065644e-16
3.355644395051e-01-j4.235156266201e-16
3.355644394760e-01+j5.823339865670e-16
3.355644394760e-01+j3.176367199457e-16
3.355644394760e-01+j4.499853532822e-16
3.355644394760e-01-j1.588183599728e-16
3.355644394760e-01-j4.235156266201e-16
3.355644394760e-01-j1.323486333107e-16
3.355644394760e-01-j5.823339865670e-16
3.355644395051e-01-j1.323486333107e-16
3.355644394760e-01+j1.852880866350e-16
3.355644394760e-01+j1.058789066550e-16
3.355644394760e-01+j1.588183599728e-16
3.355644395051e-01-j7.940917998641e-17
3.355644394760e-01+j5.293945332751e-17
3.355644394760e-01-j1.323486333188e-17
3.355644394760e-01+j1.588183599728e-16
3.355644394760e-01+j3.970458999321e-17
3.355644395051e-01-j1.323486333107e-16
3.355644395051e-01-j6.617431665534e-17
3.355644395051e-01+j2.117578133100e-16
3.355644394760e-01-j1.323486333188e-17
3.355644394760e-01+j1.588183599728e-16
3.355644395051e-01-j3.970458999321e-17
3.355644394760e-01+j0.000000000000e+00
3.355644394760e-01+j1.985229499660e-17
3.355644394760e-01+j7.279174832088e-17
3.355644394760e-01+j2.646972666375e-17
3.355644394760e-01+j5.293945332751e-17
3.355644394760e-01+j3.308715832767e-17
3.355644394760e-01-j7.279174832088e-17
3.355644394760e-01-j5.955688498981e-17
3.355644394760e-01-j6.617431665534e-17
3.355644394760e-01-j4.301330582597e-17
3.355644395051e-01-j2.316101082937e-17
3.355644394760e-01+j3.308715832969e-18
3.355644394760e-01+j1.654357916384e-17
3.355644394760e-01-j2.646972666375e-17
3.355644394760e-01+j0.000000000000e+00
3.355644395051e-01-j1.985229499660e-17
3.355644394760e-01-j4.963073749151e-18
3.355644394760e-01+j3.308715832969e-18
3.355644394760e-01+j0.000000000000e+00
3.355644394760e-01+j1.654357916384e-17
3.355644394760e-01+j1.323486333188e-17
</dep>
<dep ac.v(outputv) frequency>
3.355651106011e-01+j4.301339185276e-16
3.355651106011e-01+j1.389663429089e-16
3.355651106011e-01+j1.985233470127e-16
3.355651106011e-01-j6.617444900424e-16
3.355651106011e-01-j1.270549420881e-15
3.355651106011e-01+j2.646977960170e-17
3.355651106011e-01-j6.220398206399e-16
3.355651106011e-01+j1.588186776102e-16
3.355651106011e-01+j3.308722450212e-16
3.355651106011e-01+j3.044024654195e-16
3.355651106011e-01+j1.548482106699e-15
3.355651106011e-01-j2.117582368136e-15
3.355651106011e-01-j1.297019200483e-15
3.355651106011e-01-j2.382280164153e-16
3.355651106011e-01-j8.205631676526e-16
3.355651106011e-01+j1.588186776102e-16
3.355651106011e-01-j1.005851624864e-15
3.355651106011e-01-j2.117582368136e-16
3.355651106011e-01-j7.411538288475e-16
3.355651106011e-01-j1.429368098492e-15
3.355651106011e-01-j5.029258124322e-16
3.355651106011e-01-j9.264422860594e-16
3.355651106011e-01+j5.293955920339e-17
3.355651106011e-01+j1.217609861678e-15
3.355651106011e-01-j4.499862532288e-16
3.355651106011e-01-j8.205631676526e-16
3.355651106011e-01-j1.852884572119e-16
3.355651106011e-01-j1.217609861678e-15
3.355651106011e-01-j5.558653716356e-16
3.355651106011e-01-j2.355810384551e-15
3.355651106011e-01-j1.323488980085e-16
3.355651106011e-01+j5.823351512373e-16
3.355651106011e-01+j6.352747104407e-16
3.355651106011e-01-j1.323488980085e-16
3.355651106011e-01+j5.558653716356e-16
3.355651106011e-01+j1.005851624864e-15
3.355651106011e-01+j2.646977960170e-16
3.355651106011e-01-j4.235164736272e-16
3.355651106011e-01-j8.999725064577e-16
3.355651106011e-01-j4.235164736272e-16
3.355651106011e-01+j5.823351512373e-16
3.355651106011e-01+j3.176373552204e-16
3.355651106011e-01+j4.499862532288e-16
3.355651106011e-01-j1.588186776102e-16
3.355651106011e-01-j4.235164736272e-16
3.355651106011e-01-j1.323488980085e-16
3.355651106011e-01-j5.823351512373e-16
3.355651106011e-01-j1.323488980085e-16
3.355651106011e-01+j1.852884572119e-16
3.355651106011e-01+j1.058791184068e-16
3.355651106011e-01+j1.588186776102e-16
3.355651106011e-01-j7.940933880509e-17
3.355651106011e-01+j5.293955920339e-17
3.355651106011e-01-j1.323488980085e-17
3.355651106011e-01+j1.588186776102e-16
3.355651106011e-01+j3.970466940255e-17
3.355651106011e-01-j1.323488980085e-16
3.355651106011e-01-j6.617444900424e-17
3.355651106011e-01+j2.117582368136e-16
3.355651106011e-01-j1.323488980085e-17
3.355651106011e-01+j1.588186776102e-16
3.355651106011e-01-j3.970466940255e-17
3.355651106011e-01+j0.000000000000e+00
3.355651106011e-01+j1.985233470127e-17
3.355651106011e-01+j7.279189390467e-17
3.355651106011e-01+j2.646977960170e-17
3.355651106011e-01+j5.293955920339e-17
3.355651106011e-01+j3.308722450212e-17
3.355651106011e-01-j7.279189390467e-17
3.355651106011e-01-j5.955700410382e-17
3.355651106011e-01-j6.617444900424e-17
3.355651106011e-01-j4.301339185276e-17
3.355651106011e-01-j2.316105715148e-17
3.355651106011e-01+j3.308722450212e-18
3.355651106011e-01+j1.654361225106e-17
3.355651106011e-01-j2.646977960170e-17
3.355651106011e-01+j0.000000000000e+00
3.355651106011e-01-j1.985233470127e-17
3.355651106011e-01-j4.963083675318e-18
3.355651106011e-01+j3.308722450212e-18
3.355651106011e-01+j0.000000000000e+00
3.355651106011e-01+j1.654361225106e-17
3.355651106011e-01+j1.323488980085e-17
</dep>
<dep ac.v(outputv1) frequency>
-3.355657817313e-01+j0.000000000000e+00
-3.355657817313e-01+j0.000000000000e+00
-3.355657817313e-01+j0.000000000000e+00
-3.355657817313e-01+j0.000000000000e+00
-3.355657817313e-01+j0.000000000000e+00
-3.355657817313e-01+j0.000000000000e+00
-3.355657817313e-01+j0.000000000000e+00
-3.355657817313e-01+j0.000000000000e+00
-3.355657817313e-01+j0.000000000000e+00
-3.355657817313e-01+j0.000000000000e+00
-3.355657817313e-01+j0.000000000000e+00
-3.355657817313e-01+j0.000000000000e+00
-3.355657817313e-01+j0.000000000000e+00
-3.355657817313e-01+j0.000000000000e+00
-3.355657817313e-01+j0.000000000000e+00
-3.355657817313e-01+j0.000000000000e+00
-3.355657817313e-01+j0.000000000000e+00
-3.355657817313e-01+j0.000000000000e+00
-3.355657817313e-01+j0.000000000000e+00
-3.355657817313e-01+j0.000000000000e+00
-3.355657817313e-01+j0.000000000000e+00
-3.355657817313e-01+j0.000000000000e+00
-3.355657817313e-01+j0.000000000000e+00
-3.355657817313e-01+j0.000000000000e+00
-3.355657817313e-01+j0.000000000000e+00
-3.355657817313e-01+j0.000000000000e+00
-3.355657817313e-01+j0.000000000000e+00
-3.355657817313e-01+j0.000000000000e+00
-3.355657817313e-01+j0.000000000000e+00
-3.355657817313e-01+j0.000000000000e+00
-3.355657817313e-01+j0.000000000000e+00
-3.355657817313e-01+j0.000000000000e+00
-3.355657817313e-01+j0.000000000000e+00
-3.355657817313e-01+j0.000000000000e+00
-3.355657817313e-01+j0.000000000000e+00
-3.355657817313e-01+j0.000000000000e+00
-3.355657817313e-01+j0.000000000000e+00
-3.355657817313e-01+j0.000000000000e+00
-3.355657817313e-01+j0.000000000000e+00
-3.355657817313e-01+j0.000000000000e+00
-3.355657817313e-01+j0.000000000000e+00
-3.355657817313e-01+j0.000000000000e+00
-3.355657817313e-01+j0.000000000000e+00
-3.355657817313e-01+j0.000000000000e+00
-3.355657817313e-01+j0.000000000000e+00
-3.355657817313e-01+j0.000000000000e+00
-3.355657817313e-01+j0.000000000000e+00
-3.355657817313e-01+j0.000000000000e+00
-3.355657817313e-01+j0.000000000000e+00
-3.355657817313e-01+j0.000000000000e+00
-3.355657817313e-01+j0.000000000000e+00
-3.355657817313e-01+j0.000000000000e+00
-3.355657817313e-01+j0.000000000000e+00
-3.355657817313e-01+j0.000000000000e+00
-3.355657817313e-01+j0.000000000000e+00
-3.355657817313e-01+j0.000000000000e+00
-3.355657817313e-01+j0.000000000000e+00
-3.355657817313e-01+j0.000000000000e+00
-3.355657817313e-01+j0.000000000000e+00
-3.355657817313e-01+j0.000000000000e+00
-3.355657817313e-01+j0.000000000000e+00
-3.355657817313e-01+j0.000000000000e+00
-3.355657817313e-01+j0.000000000000e+00
-3.355657817313e-01+j0.000000000000e+00
-3.355657817313e-01+j0.000000000000e+00
-3.355657817313e-01+j0.000000000000e+00
-3.355657817313e-01+j0.000000000000e+00
-3.355657817313e-01+j0.000000000000e+00
-3.355657817313e-01+j0.000000000000e+00
-3.355657817313e-01+j0.000000000000e+00
-3.355657817313e-01+j0.000000000000e+00
-3.355657817313e-01+j0.000000000000e+00
-3.355657817313e-01+j0.000000000000e+00
-3.355657817313e-01+j0.000000000000e+00
-3.355657817313e-01+j0.000000000000e+00
-3.355657817313e-01+j0.000000000000e+00
-3.355657817313e-01+j0.000000000000e+00
-3.355657817313e-01+j0.000000000000e+00
-3.355657817313e-01+j0.000000000000e+00
-3.355657817313e-01+j0.000000000000e+00
-3.355657817313e-01+j0.000000000000e+00
-3.355657817313e-01+j0.000000000000e+00
-3.355657817313e-01+j0.000000000000e+00
</dep>
<dep ac.v(probepoint) frequency>
-3.355651109760e-07+j6.049848122469e-17
-3.355651107192e-07+j1.962405932199e-17
-3.355651107192e-07+j2.764715539838e-17
-3.355651101780e-07-j9.259086553026e-17
-3.355651098519e-07-j1.788933584601e-16
-3.355651106152e-07+j3.686287386451e-18
-3.355651103029e-07-j8.738669510233e-17
-3.355651106776e-07+j2.298508605669e-17
-3.355651107192e-07+j4.575333167889e-17
-3.355651107123e-07+j4.250072516143e-17
-3.355651111425e-07+j2.181414771041e-16
-3.355651099143e-07-j2.988061187370e-16
-3.355651102196e-07-j1.821459649776e-16
-3.355651105458e-07-j3.295974604356e-17
-3.355651104001e-07-j1.153591111525e-16
-3.355651106429e-07+j2.341876692569e-17
-3.355651103931e-07-j1.409462824231e-16
-3.355651105458e-07-j3.035766082959e-17
-3.355651104833e-07-j1.040834085586e-16
-3.355651103792e-07-j2.012279232133e-16
-3.355651105458e-07-j7.025630077706e-17
-3.355651104764e-07-j1.318389841742e-16
-3.355651106082e-07+j6.071532165919e-18
-3.355651107331e-07+j1.717376241217e-16
-3.355651105527e-07-j6.158268339718e-17
-3.355651105250e-07-j1.170938346284e-16
-3.355651106082e-07-j2.428612866368e-17
-3.355651105250e-07-j1.700029006457e-16
-3.355651105666e-07-j7.632783294298e-17
-3.355651104556e-07-j3.313321839116e-16
-3.355651105943e-07-j1.734723475977e-17
-3.355651106360e-07+j7.979727989493e-17
-3.355651106221e-07+j9.020562075079e-17
-3.355651105943e-07-j1.214306433184e-17
-3.355651106221e-07+j7.632783294298e-17
-3.355651106221e-07+j1.353084311262e-16
-3.355651106082e-07+j3.816391647149e-17
-3.355651105943e-07-j5.551115123126e-17
-3.355651105770e-07-j1.249000902703e-16
-3.355651105978e-07-j5.898059818321e-17
-3.355651106082e-07+j7.979727989493e-17
-3.355651105909e-07+j3.122502256758e-17
-3.355651106082e-07+j6.245004513517e-17
-3.355651106048e-07-j2.081668171172e-17
-3.355651106048e-07-j5.898059818321e-17
-3.355651106013e-07-j1.734723475977e-17
-3.355651105978e-07-j7.285838599103e-17
-3.355651106013e-07-j2.081668171172e-17
-3.355651106030e-07+j1.734723475977e-17
-3.355651106013e-07+j1.387778780781e-17
-3.355651105978e-07+j2.081668171172e-17
-3.355651105978e-07-j1.040834085586e-17
-3.355651106013e-07+j0.000000000000e+00
-3.355651106013e-07+j3.469446951954e-18
-3.355651106022e-07+j2.428612866368e-17
-3.355651106004e-07+j1.040834085586e-17
-3.355651106009e-07-j1.387778780781e-17
-3.355651106017e-07-j5.204170427930e-18
-3.355651106013e-07+j2.255140518770e-17
-3.355651106013e-07+j0.000000000000e+00
-3.355651106000e-07+j1.214306433184e-17
-3.355651106013e-07-j1.734723475977e-18
-3.355651106015e-07+j1.734723475977e-18
-3.355651106011e-07+j1.734723475977e-18
-3.355651106006e-07+j7.806255641896e-18
-3.355651106009e-07+j2.602085213965e-18
-3.355651106010e-07+j5.204170427930e-18
-3.355651106010e-07+j3.469446951954e-18
-3.355651106011e-07-j9.540979117872e-18
-3.355651106010e-07-j6.938893903907e-18
-3.355651106011e-07-j8.673617379884e-18
-3.355651106011e-07-j5.637851296925e-18
-3.355651106011e-07-j3.903127820948e-18
-3.355651106010e-07-j8.673617379884e-19
-3.355651106010e-07+j1.301042606983e-18
-3.355651106010e-07-j3.469446951954e-18
-3.355651106011e-07+j8.673617379884e-19
-3.355651106011e-07-j1.951563910474e-18
-3.355651106011e-07-j6.505213034913e-19
-3.355651106011e-07+j4.336808689942e-19
-3.355651106011e-07+j2.168404344971e-19
-3.355651106011e-07+j2.168404344971e-18
-3.355651106010e-07+j1.084202172486e-18
</dep>
<dep ac.v(subv) frequency>
3.248663075401e-01-j8.341340966864e-02
3.226297913833e-01-j9.142200069465e-02
3.199102902287e-01-j1.001805094719e-01
3.165977948759e-01-j1.097480711804e-01
3.125555815195e-01-j1.201819028618e-01
3.076136212853e-01-j1.315327951220e-01
3.015607564148e-01-j1.438378118811e-01
2.941359219614e-01-j1.571087639999e-01
2.850193313945e-01-j1.713144615662e-01
2.738257734749e-01-j1.863541830686e-01
2.601043352416e-01-j2.020195573046e-01
2.433523154032e-01-j2.179429209039e-01
2.230557687670e-01-j2.335337399512e-01
1.987735801008e-01-j2.479133024253e-01
1.702815875804e-01-j2.598739777596e-01
1.377786583479e-01-j2.679114918622e-01
1.021163280868e-01-j2.703940225182e-01
6.494896824578e-02-j2.659100834117e-01
2.865273766529e-02-j2.537454741498e-01
-4.089584864463e-03-j2.342980010438e-01
-3.095186883550e-02-j2.091672643919e-01
-5.057709246769e-02-j1.807907762372e-01
-6.282450864871e-02-j1.517838001564e-01
-6.857241273452e-02-j1.243211981622e-01
-6.926312833891e-02-j9.981376205905e-02
-6.644991048854e-02-j7.890381888008e-02
-6.149921571888e-02-j6.165011200209e-02
-5.546600555663e-02-j4.775748914130e-02
-4.908834217380e-02-j3.676682260769e-02
-4.283946483527e-02-j2.818058757088e-02
-3.699499538373e-02-j2.153210759875e-02
-3.169409363232e-02-j1.641609311380e-02
-2.698736417636e-02-j1.249645160655e-02
-2.287130938366e-02-j9.502530389088e-03
-1.931173620615e-02-j7.220528009666e-03
-1.625897881769e-02-j5.483710265459e-03
-1.365741218134e-02-j4.163174343585e-03
-1.145113938633e-02-j3.159853692559e-03
-9.587190806755e-03-j2.397920268046e-03
-8.017147646557e-03-j1.819494898748e-03
-6.697795420560e-03-j1.380483391005e-03
-5.591201082379e-03-j1.047337803861e-03
-4.664465315218e-03-j7.945573443316e-04
-3.889307784936e-03-j6.027703221746e-04
-3.241582209831e-03-j4.572674376121e-04
-2.700778914641e-03-j3.468830002102e-04
-2.249547626055e-03-j2.631430061953e-04
-1.873257647004e-03-j1.996171868113e-04
-1.559602931098e-03-j1.514265928220e-04
-1.298253816363e-03-j1.148695898091e-04
-1.080553868236e-03-j8.713790019770e-05
-8.992585165925e-04-j6.610106976364e-05
-7.483113626002e-04-j5.014290087077e-05
-6.226538001050e-04-j3.803733875871e-05
-5.180637011999e-04-j2.885430296191e-05
-4.310192034513e-04-j2.188824331997e-05
-3.585840114681e-04-j1.660393901736e-05
-2.983110297928e-04-j1.259538024659e-05
-2.481615431679e-04-j9.554575340845e-06
-2.064375350153e-04-j7.247887819478e-06
-1.717250760047e-04-j5.498085810498e-06
-1.428470183292e-04-j4.170724939813e-06
-1.188234977225e-04-j3.163818588695e-06
-9.883897630997e-05-j2.400001926219e-06
-8.221475808451e-05-j1.820587690321e-06
-6.838607854401e-05-j1.381057021040e-06
-5.688301430953e-05-j1.047638899555e-06
-4.731458067551e-05-j7.947153830612e-07
-3.935548809956e-05-j6.028532718727e-07
-3.273511537108e-05-j4.573109750506e-07
-2.722833003681e-05-j3.469058515285e-07
-2.264784773095e-05-j2.631550001643e-07
-1.883787318547e-05-j1.996234821708e-07
-1.566880845405e-05-j1.514298971768e-07
-1.303284960715e-05-j1.148713242681e-07
-1.084032297904e-05-j8.713881064646e-08
-9.016636930839e-06-j6.610154769382e-08
-7.499745842432e-06-j5.014315176732e-08
-6.238040341359e-06-j3.803747047840e-08
-5.188592186888e-06-j2.885437211918e-08
-4.315694231234e-06-j2.188827963300e-08
-3.589645875954e-06-j1.660395808655e-08
-2.985742764314e-06-j1.259539026172e-08
</dep>
<dep ac.odb frequency>
-9.484463999842e+00+j0.000000000000e+00
-9.484463999842e+00+j0.000000000000e+00
-9.484463999842e+00+j0.000000000000e+00
-9.484463999841e+00+j0.000000000000e+00
-9.484463999841e+00+j0.000000000000e+00
-9.484463999842e+00+j0.000000000000e+00
-9.484463999841e+00+j0.000000000000e+00
-9.484463999842e+00+j0.000000000000e+00
-9.484463999842e+00+j0.000000000000e+00
-9.484463999842e+00+j0.000000000000e+00
-9.484463999842e+00+j0.000000000000e+00
-9.484463999841e+00+j0.000000000000e+00
-9.484463999841e+00+j0.000000000000e+00
-9.484463999841e+00+j0.000000000000e+00
-9.484463999841e+00+j0.000000000000e+00
-9.484463999842e+00+j0.000000000000e+00
-9.484463999841e+00+j0.000000000000e+00
-9.484463999841e+00+j0.000000000000e+00
-9.484463999841e+00+j0.000000000000e+00
-9.484463999841e+00+j0.000000000000e+00
-9.484463999841e+00+j0.000000000000e+00
-9.484463999841e+00+j0.000000000000e+00
-9.484463999841e+00+j0.000000000000e+00
-9.484463999842e+00+j0.000000000000e+00
-9.484463999841e+00+j0.000000000000e+00
-9.484463999841e+00+j0.000000000000e+00
-9.484463999841e+00+j0.000000000000e+00
-9.484463999841e+00+j0.000000000000e+00
-9.484463999841e+00+j0.000000000000e+00
-9.484463999841e+00+j0.000000000000e+00
-9.484463999841e+00+j0.000000000000e+00
-9.484463999842e+00+j0.000000000000e+00
-9.484463999842e+00+j0.000000000000e+00
-9.484463999841e+00+j0.000000000000e+00
-9.484463999842e+00+j0.000000000000e+00
-9.484463999842e+00+j0.000000000000e+00
-9.484463999842e+00+j0.000000000000e+00
-9.484463999841e+00+j0.000000000000e+00
-9.484463999841e+00+j0.000000000000e+00
-9.484463999841e+00+j0.000000000000e+00
-9.484463999842e+00+j0.000000000000e+00
-9.484463999842e+00+j0.000000000000e+00
-9.484463999842e+00+j0.000000000000e+00
