<Qucs Dataset 0.0.22>
<indep frequency 83>
1.000000000000e+01
1.096478196143e+01
1.202264434617e+01
1.318256738556e+01
1.445439770746e+01
1.584893192461e+01
1.737800828749e+01
1.905460717963e+01
2.089296130854e+01
2.290867652768e+01
2.511886431510e+01
2.754228703338e+01
3.019951720402e+01
3.311311214826e+01
3.630780547701e+01
3.981071705535e+01
4.365158322402e+01
4.786300923226e+01
5.248074602498e+01
5.754399373372e+01
6.309573444802e+01
6.918309709189e+01
7.585775750292e+01
8.317637711027e+01
9.120108393559e+01
1.000000000000e+02
1.096478196143e+02
1.202264434617e+02
1.318256738556e+02
1.445439770746e+02
1.584893192461e+02
1.737800828749e+02
1.905460717963e+02
2.089296130854e+02
2.290867652768e+02
2.511886431510e+02
2.754228703338e+02
3.019951720402e+02
3.311311214826e+02
3.630780547701e+02
3.981071705535e+02
4.365158322402e+02
4.786300923226e+02
5.248074602498e+02
5.754399373372e+02
6.309573444802e+02
6.918309709189e+02
7.585775750292e+02
8.317637711027e+02
9.120108393559e+02
1.000000000000e+03
1.096478196143e+03
1.202264434617e+03
1.318256738556e+03
1.445439770746e+03
1.584893192461e+03
1.737800828749e+03
1.905460717963e+03
2.089296130854e+03
2.290867652768e+03
2.511886431510e+03
2.754228703338e+03
3.019951720402e+03
3.311311214826e+03
3.630780547701e+03
3.981071705535e+03
4.365158322402e+03
4.786300923226e+03
5.248074602498e+03
5.754399373372e+03
6.309573444802e+03
6.918309709189e+03
7.585775750292e+03
8.317637711027e+03
9.120108393559e+03
1.000000000000e+04
1.096478196143e+04
1.202264434617e+04
1.318256738556e+04
1.445439770746e+04
1.584893192461e+04
1.737800828749e+04
1.905460717963e+04
</indep>
<dep ac.v(endv) frequency>
6.820119622716e-02+j1.897751345496e-02
6.842055149173e-02+j2.079540165505e-02
6.868393736659e-02+j2.278455159467e-02
6.900011051039e-02+j2.496018601232e-02
6.937953301531e-02+j2.733858971078e-02
6.983468859835e-02+j2.993708679969e-02
7.038045039371e-02+j3.277397827333e-02
7.103450542490e-02+j3.586842552249e-02
7.181783985288e-02+j3.924026141613e-02
7.275528701575e-02+j4.290970570582e-02
7.387613660103e-02+j4.689695593333e-02
7.521479729621e-02+j5.122161868712e-02
7.681149712153e-02+j5.590193932949e-02
7.871299223189e-02+j6.095378183090e-02
8.097323824040e-02+j6.638930542977e-02
8.365395376313e-02+j7.221528312948e-02
8.682497607515e-02+j7.843101135222e-02
9.056427125324e-02+j8.502577485342e-02
9.495741924184e-02+j9.197586123628e-02
1.000963511469e-01+j9.924117095943e-02
1.060770805707e-01+j1.067615489883e-01
1.129961561455e-01+j1.144530768070e-01
1.209455890712e-01+j1.222047073970e-01
1.300061000002e-01+j1.298757913464e-01
1.402387109265e-01+j1.372952011152e-01
1.516749934963e-01+j1.442628688528e-01
1.643066688557e-01+j1.505545447435e-01
1.780756883090e-01+j1.559303893882e-01
1.928663130966e-01+j1.601475805801e-01
2.085009153379e-01+j1.629764482059e-01
2.247410939017e-01+j1.642188378901e-01
2.412951461592e-01+j1.637266360922e-01
2.578319849854e-01+j1.614179120079e-01
2.740004273073e-01+j1.572881642205e-01
2.894517130335e-01+j1.514147828420e-01
3.038624629553e-01+j1.439539344574e-01
3.169552534819e-01+j1.351303457923e-01
3.285145509581e-01+j1.252215454515e-01
3.383966971887e-01+j1.145387480501e-01
3.465336425579e-01+j1.034066572101e-01
3.529309240694e-01+j9.214413767768e-02
3.576608503354e-01+j8.104718711547e-02
3.608520282432e-01+j7.037513395335e-02
3.626763722277e-01+j6.034060910315e-02
3.633347084688e-01+j5.110357783997e-02
3.630420889240e-01+j4.276949406267e-02
3.620139317936e-01+j3.539137498228e-02
3.604540345259e-01+j2.897527215282e-02
3.585452959232e-01+j2.348828955837e-02
3.564436301822e-01+j1.886806677066e-02
3.542751226341e-01+j1.503258292087e-02
3.521360684244e-01+j1.188926811574e-02
3.500952394097e-01+j9.342689136247e-03
3.481975960021e-01+j7.300422833396e-03
3.464686855441e-01+j5.677056737568e-03
3.449191067193e-01+j4.396501699375e-03
3.435486095259e-01+j3.392942642904e-03
3.423495870084e-01+j2.610799261674e-03
3.413098710589e-01+j2.004045183980e-03
3.404148509726e-01+j1.535172472472e-03
3.396489961306e-01+j1.174013936179e-03
3.389968908741e-01+j8.965655606517e-04
3.384438907669e-01+j6.838939606268e-04
3.379765006830e-01+j5.211714771463e-04
3.375825559488e-01+j3.968531296437e-04
3.372512706846e-01+j3.019922771443e-04
3.369732020365e-01+j2.296824673635e-04
3.367401640280e-01+j1.746088853167e-04
3.365451153950e-01+j1.326919962565e-04
3.363820369996e-01+j1.008069723412e-04
3.362458086631e-01+j7.656435460035e-05
3.361320928962e-01+j5.813955352707e-05
3.360372269235e-01+j4.414091325344e-05
3.359581258555e-01+j3.350798809976e-05
3.358921973850e-01+j2.543334340999e-05
3.358372669609e-01+j1.930258369320e-05
3.357915130910e-01+j1.464844860521e-05
3.357534118695e-01+j1.111573238255e-05
3.357216895965e-01+j8.434509429556e-06
3.356952826725e-01+j6.399721064199e-06
3.356733035180e-01+j4.855625707290e-06
3.356550117605e-01+j3.683962308543e-06
3.356397901953e-01+j2.794945644702e-06
</dep>
<dep ac.v(outputv) frequency>
6.820133262775e-02+j1.897755140889e-02
6.842068832951e-02+j2.079544324390e-02
6.868407473743e-02+j2.278459716248e-02
6.900024851583e-02+j2.496023593165e-02
6.937967177101e-02+j2.733864438791e-02
6.983482826158e-02+j2.993714667488e-02
7.038059115289e-02+j3.277404382064e-02
7.103464749134e-02+j3.586849725867e-02
7.181798348205e-02+j3.924033989636e-02
7.275543252725e-02+j4.290979152341e-02
7.387628434673e-02+j4.689704972477e-02
7.521494772813e-02+j5.122172113185e-02
7.681165074386e-02+j5.590205113411e-02
7.871314966148e-02+j6.095390373258e-02
8.097340018754e-02+j6.638943820678e-02
8.365412107320e-02+j7.221542756611e-02
8.682514972728e-02+j7.843116821491e-02
9.056445238199e-02+j8.502594490691e-02
9.495760915656e-02+j9.197604519116e-02
1.000965513467e-01+j9.924136943650e-02
1.060772927205e-01+j1.067617625092e-01
1.129963821332e-01+j1.144533057089e-01
1.209458309579e-01+j1.222049518087e-01
1.300063600043e-01+j1.298760510938e-01
1.402389913929e-01+j1.372954756998e-01
1.516752968464e-01+j1.442631573652e-01
1.643069974697e-01+j1.505548458591e-01
1.780760444547e-01+j1.559307012443e-01
1.928666988369e-01+j1.601479008595e-01
2.085013323419e-01+j1.629767741534e-01
2.247415433769e-01+j1.642191663389e-01
2.412956287374e-01+j1.637269635313e-01
2.578325006368e-01+j1.614182348226e-01
2.740009753200e-01+j1.572884787831e-01
2.894522919074e-01+j1.514150856777e-01
3.038630706648e-01+j1.439542223614e-01
3.169558873672e-01+j1.351306160521e-01
3.285152079810e-01+j1.252217958976e-01
3.383973739473e-01+j1.145389771297e-01
3.465343356090e-01+j1.034068640221e-01
3.529316299357e-01+j9.214432197013e-02
3.576615656324e-01+j8.104734921709e-02
3.608527499311e-01+j7.037527470486e-02
3.626770975564e-01+j6.034072978372e-02
3.633354351266e-01+j5.110368004868e-02
3.630428150263e-01+j4.276957959942e-02
3.620146558366e-01+j3.539144576567e-02
3.604547554305e-01+j2.897533010343e-02
3.585460130184e-01+j2.348833653628e-02
3.564443430513e-01+j1.886810450665e-02
3.542758311829e-01+j1.503261298525e-02
3.521367726723e-01+j1.188929189348e-02
3.500959395644e-01+j9.342707821040e-03
3.481982923843e-01+j7.300437434163e-03
3.464693784554e-01+j5.677068092142e-03
3.449197965482e-01+j4.396510492555e-03
3.435492966138e-01+j3.392949428645e-03
3.423502717037e-01+j2.610804483186e-03
3.413105536767e-01+j2.004049191985e-03
3.404155317912e-01+j1.535175542736e-03
3.396496754565e-01+j1.174016284165e-03
3.389975688568e-01+j8.965673538062e-04
3.384445676226e-01+j6.838953284605e-04
3.379771766355e-01+j5.211725195022e-04
3.375832311105e-01+j3.968539233555e-04
3.372519451829e-01+j3.019928811141e-04
3.369738759631e-01+j2.296829267138e-04
3.367408374999e-01+j1.746092345421e-04
3.365457885017e-01+j1.326922616329e-04
3.363827097211e-01+j1.008071739552e-04
3.362464811559e-01+j7.656450773019e-05
3.361327651822e-01+j5.813966980554e-05
3.360378989744e-01+j4.414100153538e-05
3.359587977446e-01+j3.350805511633e-05
3.358928691683e-01+j2.543339427754e-05
3.358379386496e-01+j1.930262229917e-05
3.357921846829e-01+j1.464847790216e-05
3.357540833638e-01+j1.111575461378e-05
3.357223610366e-01+j8.434526298080e-06
3.356959540764e-01+j6.399733863522e-06
3.356739748590e-01+j4.855635418768e-06
3.356556830552e-01+j3.683969676404e-06
3.356404614768e-01+j2.794951234306e-06
</dep>
<dep ac.v(outputv1) frequency>
-3.355657817313e-01+j0.000000000000e+00
-3.355657817313e-01+j0.000000000000e+00
-3.355657817313e-01+j0.000000000000e+00
-3.355657817313e-01+j0.000000000000e+00
-3.355657817313e-01+j0.000000000000e+00
-3.355657817313e-01+j0.000000000000e+00
-3.355657817313e-01+j0.000000000000e+00
-3.355657817313e-01+j0.000000000000e+00
-3.355657817313e-01+j0.000000000000e+00
-3.355657817313e-01+j0.000000000000e+00
-3.355657817313e-01+j0.000000000000e+00
-3.355657817313e-01+j0.000000000000e+00
-3.355657817313e-01+j0.000000000000e+00
-3.355657817313e-01+j0.000000000000e+00
-3.355657817313e-01+j0.000000000000e+00
-3.355657817313e-01+j0.000000000000e+00
-3.355657817313e-01+j0.000000000000e+00
-3.355657817313e-01+j0.000000000000e+00
-3.355657817313e-01+j0.000000000000e+00
-3.355657817313e-01+j0.000000000000e+00
-3.355657817313e-01+j0.000000000000e+00
-3.355657817313e-01+j0.000000000000e+00
-3.355657817313e-01+j0.000000000000e+00
-3.355657817313e-01+j0.000000000000e+00
-3.355657817313e-01+j0.000000000000e+00
-3.355657817313e-01+j0.000000000000e+00
-3.355657817313e-01+j0.000000000000e+00
-3.355657817313e-01+j0.000000000000e+00
-3.355657817313e-01+j0.000000000000e+00
-3.355657817313e-01+j0.000000000000e+00
-3.355657817313e-01+j0.000000000000e+00
-3.355657817313e-01+j0.000000000000e+00
-3.355657817313e-01+j0.000000000000e+00
-3.355657817313e-01+j0.000000000000e+00
-3.355657817313e-01+j0.000000000000e+00
-3.355657817313e-01+j0.000000000000e+00
-3.355657817313e-01+j0.000000000000e+00
-3.355657817313e-01+j0.000000000000e+00
-3.355657817313e-01+j0.000000000000e+00
-3.355657817313e-01+j0.000000000000e+00
-3.355657817313e-01+j0.000000000000e+00
-3.355657817313e-01+j0.000000000000e+00
-3.355657817313e-01+j0.000000000000e+00
-3.355657817313e-01+j0.000000000000e+00
-3.355657817313e-01+j0.000000000000e+00
-3.355657817313e-01+j0.000000000000e+00
-3.355657817313e-01+j0.000000000000e+00
-3.355657817313e-01+j0.000000000000e+00
-3.355657817313e-01+j0.000000000000e+00
-3.355657817313e-01+j0.000000000000e+00
-3.355657817313e-01+j0.000000000000e+00
-3.355657817313e-01+j0.000000000000e+00
-3.355657817313e-01+j0.000000000000e+00
-3.355657817313e-01+j0.000000000000e+00
-3.355657817313e-01+j0.000000000000e+00
-3.355657817313e-01+j0.000000000000e+00
-3.355657817313e-01+j0.000000000000e+00
-3.355657817313e-01+j0.000000000000e+00
-3.355657817313e-01+j0.000000000000e+00
-3.355657817313e-01+j0.000000000000e+00
-3.355657817313e-01+j0.000000000000e+00
-3.355657817313e-01+j0.000000000000e+00
-3.355657817313e-01+j0.000000000000e+00
-3.355657817313e-01+j0.000000000000e+00
-3.355657817313e-01+j0.000000000000e+00
-3.355657817313e-01+j0.000000000000e+00
-3.355657817313e-01+j0.000000000000e+00
-3.355657817313e-01+j0.000000000000e+00
-3.355657817313e-01+j0.000000000000e+00
-3.355657817313e-01+j0.000000000000e+00
-3.355657817313e-01+j0.000000000000e+00
-3.355657817313e-01+j0.000000000000e+00
-3.355657817313e-01+j0.000000000000e+00
-3.355657817313e-01+j0.000000000000e+00
-3.355657817313e-01+j0.000000000000e+00
-3.355657817313e-01+j0.000000000000e+00
-3.355657817313e-01+j0.000000000000e+00
-3.355657817313e-01+j0.000000000000e+00
-3.355657817313e-01+j0.000000000000e+00
-3.355657817313e-01+j0.000000000000e+00
-3.355657817313e-01+j0.000000000000e+00
-3.355657817313e-01+j0.000000000000e+00
-3.355657817313e-01+j0.000000000000e+00
</dep>
<dep ac.v(probepoint) frequency>
4.270295321862e-04+j6.098483759813e-03
5.130970244307e-04+j6.681471993199e-03
6.164314025796e-04+j7.319001912978e-03
7.404625328812e-04+j8.015798563871e-03
8.892864414511e-04+j8.776874988349e-03
1.067787995185e-03+j9.607508347961e-03
1.281783188834e-03+j1.051319830683e-02
1.538182802307e-03+j1.149960162498e-02
1.845178652721e-03+j1.257243526108e-02
2.212452676761e-03+j1.373733830938e-02
2.651407438576e-03+j1.499968079750e-02
3.175414100495e-03+j1.636430480426e-02
3.800070081220e-03+j1.783518066547e-02
4.543453153251e-03+j1.941495850644e-02
5.426351147369e-03+j2.110439347648e-02
6.472436300653e-03+j2.290162267530e-02
7.708340303804e-03+j2.480127407681e-02
9.163570315373e-03+j2.679339450167e-02
1.087018833084e-02+j2.886219712966e-02
1.286215817913e-02+j3.098465185914e-02
1.517424963891e-02+j3.312897672442e-02
1.784038356928e-02+j3.525313746906e-02
2.089131393577e-02+j3.730352489607e-02
2.435158264487e-02+j3.921405113542e-02
2.823576179993e-02+j4.090597521874e-02
3.254412220491e-02+j4.228881572758e-02
3.725803374255e-02+j4.326270638670e-02
4.233559310035e-02+j4.372246897080e-02
4.770814661942e-02+j4.356349408286e-02
5.327847196215e-02+j4.268923433935e-02
5.892133918543e-02+j4.101976341378e-02
6.448694897854e-02+j3.850051625176e-02
6.980735297526e-02+j3.511010352621e-02
7.470547296561e-02+j3.086607820744e-02
7.900587780128e-02+j2.582775915513e-02
8.254617900483e-02+j2.009563809022e-02
8.518784646699e-02+j1.380739288249e-02
8.682541333810e-02+j7.130961307462e-03
8.739334296763e-02+j2.553971812221e-04
8.687014876466e-02-j6.619680244048e-03
8.527960087926e-02-j1.329526075539e-02
8.268900464027e-02-j1.958401125389e-02
7.920464594531e-02-j2.532052018020e-02
7.496464479592e-02-j3.036997646518e-02
7.012968548985e-02-j3.463454385089e-02
6.487237765379e-02-j3.805680706130e-02
5.936625783127e-02-j4.061994426247e-02
5.377555616771e-02-j4.234469422756e-02
4.824675394325e-02-j4.328363727909e-02
4.290265101408e-02-j4.351366807359e-02
3.783923080571e-02-j4.312770744465e-02
3.312517503486e-02-j4.222665201553e-02
2.880354653270e-02-j4.091233862707e-02
2.489498123696e-02-j3.928199228112e-02
2.140170760351e-02-j3.742431958584e-02
1.831180234701e-02-j3.541716599964e-02
1.560324126323e-02-j3.332650003835e-02
1.324746547183e-02-j3.120641737643e-02
1.121232553198e-02-j2.909985259943e-02
9.464373887783e-03-j2.703972200436e-02
7.970547671467e-03-j2.505027597180e-02
6.699323805521e-03-j2.314849862919e-02
5.621444270665e-03-j2.134544642260e-02
4.710309217601e-03-j1.964746132020e-02
3.942125982613e-03-j1.805722753172e-02
3.295888030322e-03-j1.657466366170e-02
2.753242757554e-03-j1.519765687559e-02
2.298292955475e-03-j1.392265395094e-02
1.917364544112e-03-j1.274512787878e-02
1.598763297521e-03-j1.165993951454e-02
1.332535604134e-03-j1.066161283115e-02
1.110242587153e-03-j9.744540434541e-03
9.247527996871e-04-j8.903133720350e-03
7.700558628925e-04-j8.131929727260e-03
6.410975239571e-04-j7.425664571713e-03
5.336354176652e-04-j6.779321427149e-03
4.441141173762e-04-j6.188159370518e-03
3.695577038728e-04-j5.647728055123e-03
3.074779493658e-04-j5.153872057499e-03
2.557962268182e-04-j4.702727854544e-03
2.127773540742e-04-j4.290715680852e-03
1.769737286895e-04-j3.914527962513e-03
1.471782767675e-04-j3.571115593440e-03
</dep>
<dep ac.v(subv) frequency>
3.248663075401e-01-j8.341340966864e-02
3.226297913833e-01-j9.142200069465e-02
3.199102902287e-01-j1.001805094719e-01
3.165977948759e-01-j1.097480711804e-01
3.125555815195e-01-j1.201819028618e-01
3.076136212853e-01-j1.315327951220e-01
3.015607564148e-01-j1.438378118811e-01
2.941359219614e-01-j1.571087639999e-01
2.850193313945e-01-j1.713144615662e-01
2.738257734749e-01-j1.863541830686e-01
2.601043352416e-01-j2.020195573046e-01
2.433523154032e-01-j2.179429209039e-01
2.230557687670e-01-j2.335337399512e-01
1.987735801008e-01-j2.479133024253e-01
1.702815875803e-01-j2.598739777596e-01
1.377786583479e-01-j2.679114918622e-01
1.021163280868e-01-j2.703940225182e-01
6.494896824578e-02-j2.659100834117e-01
2.865273766529e-02-j2.537454741498e-01
-4.089584864463e-03-j2.342980010438e-01
-3.095186883550e-02-j2.091672643919e-01
-5.057709246769e-02-j1.807907762372e-01
-6.282450864871e-02-j1.517838001564e-01
-6.857241273452e-02-j1.243211981622e-01
-6.926312833891e-02-j9.981376205905e-02
-6.644991048854e-02-j7.890381888008e-02
-6.149921571888e-02-j6.165011200209e-02
-5.546600555663e-02-j4.775748914130e-02
-4.908834217380e-02-j3.676682260769e-02
-4.283946483527e-02-j2.818058757088e-02
-3.699499538373e-02-j2.153210759875e-02
-3.169409363232e-02-j1.641609311380e-02
-2.698736417636e-02-j1.249645160655e-02
-2.287130938366e-02-j9.502530389088e-03
-1.931173620615e-02-j7.220528009666e-03
-1.625897881769e-02-j5.483710265459e-03
-1.365741218134e-02-j4.163174343585e-03
-1.145113938633e-02-j3.159853692559e-03
-9.587190806755e-03-j2.397920268046e-03
-8.017147646557e-03-j1.819494898748e-03
-6.697795420560e-03-j1.380483391005e-03
-5.591201082379e-03-j1.047337803861e-03
-4.664465315218e-03-j7.945573443316e-04
-3.889307784936e-03-j6.027703221746e-04
-3.241582209831e-03-j4.572674376121e-04
-2.700778914641e-03-j3.468830002102e-04
-2.249547626055e-03-j2.631430061953e-04
-1.873257647004e-03-j1.996171868113e-04
-1.559602931098e-03-j1.514265928220e-04
-1.298253816363e-03-j1.148695898091e-04
-1.080553868236e-03-j8.713790019770e-05
-8.992585165925e-04-j6.610106976364e-05
-7.483113626002e-04-j5.014290087077e-05
-6.226538001050e-04-j3.803733875871e-05
-5.180637011999e-04-j2.885430296191e-05
-4.310192034513e-04-j2.188824331997e-05
-3.585840114681e-04-j1.660393901736e-05
-2.983110297928e-04-j1.259538024659e-05
-2.481615431679e-04-j9.554575340845e-06
-2.064375350153e-04-j7.247887819478e-06
-1.717250760047e-04-j5.498085810498e-06
-1.428470183292e-04-j4.170724939813e-06
-1.188234977225e-04-j3.163818588695e-06
-9.883897630997e-05-j2.400001926219e-06
-8.221475808451e-05-j1.820587690321e-06
-6.838607854401e-05-j1.381057021040e-06
-5.688301430953e-05-j1.047638899555e-06
-4.731458067551e-05-j7.947153830612e-07
-3.935548809956e-05-j6.028532718727e-07
-3.273511537108e-05-j4.573109750506e-07
-2.722833003681e-05-j3.469058515285e-07
-2.264784773095e-05-j2.631550001643e-07
-1.883787318547e-05-j1.996234821708e-07
-1.566880845405e-05-j1.514298971768e-07
-1.303284960715e-05-j1.148713242681e-07
-1.084032297904e-05-j8.713881064646e-08
-9.016636930839e-06-j6.610154769382e-08
-7.499745842432e-06-j5.014315176732e-08
-6.238040341359e-06-j3.803747047840e-08
-5.188592186888e-06-j2.885437211918e-08
-4.315694231234e-06-j2.188827963300e-08
-3.589645875954e-06-j1.660395808655e-08
-2.985742764314e-06-j1.259539026172e-08
</dep>
<dep ac.odb frequency>
-2.300026265933e+01+j0.000000000000e+00
-2.291252774875e+01+j0.000000000000e+00
-2.280947282039e+01+j0.000000000000e+00
-2.268891103310e+01+j0.000000000000e+00
-2.254851764807e+01+j0.000000000000e+00
-2.238588212338e+01+j0.000000000000e+00
-2.219858057280e+01+j0.000000000000e+00
-2.198426842550e+01+j0.000000000000e+00
-2.174079040850e+01+j0.000000000000e+00
-2.146630177493e+01+j0.000000000000e+00
-2.115939160069e+01+j0.000000000000e+00
-2.081919676203e+01+j0.000000000000e+00
-2.044549468538e+01+j0.000000000000e+00
-2.003876463244e+01+j0.000000000000e+00
-1.960021108401e+01+j0.000000000000e+00
-1.913174799848e+01+j0.000000000000e+00
-1.863594814288e+01+j0.000000000000e+00
-1.811596603439e+01+j0.000000000000e+00
-1.757544534099e+01+j0.000000000000e+00
-1.701842154541e+01+j0.000000000000e+00
-1.644922859261e+01+j0.000000000000e+00
-1.587241486614e+01+j0.000000000000e+00
-1.529267006031e+01+j0.000000000000e+00
-1.471476111786e+01+j0.000000000000e+00
-1.414347294366e+01+j0.000000000000e+00
-1.358354840445e+01+j0.000000000000e+00
-1.303962230870e+01+j0.000000000000e+00
-1.251614559685e+01+j0.000000000000e+00
-1.201729866020e+01+j0.000000000000e+00
-1.154689613975e+01+j0.000000000000e+00
-1.110828908572e+01+j0.000000000000e+00
-1.070427315098e+01+j0.000000000000e+00
-1.033701269228e+01+j0.000000000000e+00
-1.000798967585e+01+j0.000000000000e+00
-9.717983091207e+00+j0.000000000000e+00
-9.467079828530e+00+j0.000000000000e+00
-9.254712909132e+00+j0.000000000000e+00
-9.079719016405e+00+j0.000000000000e+00
-8.940405614816e+00+j0.000000000000e+00
-8.834619038280e+00+j0.000000000000e+00
-8.759808402716e+00+j0.000000000000e+00
-8.713084940372e+00+j0.000000000000e+00
-8.691280835815e+00+j0.000000000000e+00
-8.691014345818e+00+j0.000000000000e+00
-8.708767853239e+00+j0.000000000000e+00
