<Qucs Dataset 0.0.22>
<indep frequency 83>
1.000000000000e+01
1.096478196143e+01
1.202264434617e+01
1.318256738556e+01
1.445439770746e+01
1.584893192461e+01
1.737800828749e+01
1.905460717963e+01
2.089296130854e+01
2.290867652768e+01
2.511886431510e+01
2.754228703338e+01
3.019951720402e+01
3.311311214826e+01
3.630780547701e+01
3.981071705535e+01
4.365158322402e+01
4.786300923226e+01
5.248074602498e+01
5.754399373372e+01
6.309573444802e+01
6.918309709189e+01
7.585775750292e+01
8.317637711027e+01
9.120108393559e+01
1.000000000000e+02
1.096478196143e+02
1.202264434617e+02
1.318256738556e+02
1.445439770746e+02
1.584893192461e+02
1.737800828749e+02
1.905460717963e+02
2.089296130854e+02
2.290867652768e+02
2.511886431510e+02
2.754228703338e+02
3.019951720402e+02
3.311311214826e+02
3.630780547701e+02
3.981071705535e+02
4.365158322402e+02
4.786300923226e+02
5.248074602498e+02
5.754399373372e+02
6.309573444802e+02
6.918309709189e+02
7.585775750292e+02
8.317637711027e+02
9.120108393559e+02
1.000000000000e+03
1.096478196143e+03
1.202264434617e+03
1.318256738556e+03
1.445439770746e+03
1.584893192461e+03
1.737800828749e+03
1.905460717963e+03
2.089296130854e+03
2.290867652768e+03
2.511886431510e+03
2.754228703338e+03
3.019951720402e+03
3.311311214826e+03
3.630780547701e+03
3.981071705535e+03
4.365158322402e+03
4.786300923226e+03
5.248074602498e+03
5.754399373372e+03
6.309573444802e+03
6.918309709189e+03
7.585775750292e+03
8.317637711027e+03
9.120108393559e+03
1.000000000000e+04
1.096478196143e+04
1.202264434617e+04
1.318256738556e+04
1.445439770746e+04
1.584893192461e+04
1.737800828749e+04
1.905460717963e+04
</indep>
<dep ac.v(outputv) frequency>
4.457269702406e-01+j5.345381303372e-02
4.468706438866e-01+j5.847942085786e-02
4.482390343330e-01+j6.394886278095e-02
4.498747258599e-01+j6.989237665482e-02
4.518276926466e-01+j7.633938171817e-02
4.541562868555e-01+j8.331735969974e-02
4.569282274884e-01+j9.085037729761e-02
4.602215193994e-01+j9.895717680709e-02
4.641251975237e-01+j1.076487616462e-01
4.687397480118e-01+j1.169254133776e-01
4.741770062685e-01+j1.267731024757e-01
4.805592751825e-01+j1.371593040300e-01
4.880173525728e-01+j1.480283102318e-01
4.966871184740e-01+j1.592962514951e-01
5.067043311944e-01+j1.708462009814e-01
5.181973444363e-01+j1.825239374470e-01
5.312776188645e-01+j1.941351569321e-01
5.460281890949e-01+j2.054451102589e-01
5.624906709817e-01+j2.161817302386e-01
5.806519249397e-01+j2.260432104748e-01
6.004320409147e-01+j2.347106207056e-01
6.216757270989e-01+j2.418654491085e-01
6.441492740510e-01+j2.472109995449e-01
6.675448556117e-01+j2.504955176687e-01
6.914929552347e-01+j2.515340655273e-01
7.155822973902e-01+j2.502258363698e-01
7.393851471489e-01+j2.465640276317e-01
7.624846596017e-01+j2.406365697717e-01
7.845005011445e-01+j2.326176668667e-01
8.051093867163e-01+j2.227517763889e-01
8.240583388024e-01+j2.113328683955e-01
8.411699974876e-01+j1.986822666764e-01
8.563407493025e-01+j1.851280671838e-01
8.695334530313e-01+j1.709882683847e-01
8.807669784051e-01+j1.565586596206e-01
8.901046854541e-01+j1.421054974650e-01
8.976435214480e-01+j1.278622487668e-01
9.035047908237e-01+j1.140292619856e-01
9.078270215855e-01+j1.007751237443e-01
9.107608161605e-01+j8.823859730627e-02
9.124651951848e-01+j7.653034375292e-02
9.131047471934e-01+j6.573401701049e-02
9.128468921727e-01+j5.590672479453e-02
9.118587361520e-01+j4.707918324612e-02
9.103032909329e-01+j3.925609401196e-02
9.083351787614e-01+j3.241729320057e-02
9.060962383858e-01+j2.652006147923e-02
9.037116094764e-01+j2.150269749977e-02
9.012868536632e-01+j1.728913769235e-02
8.989064909727e-01+j1.379415549192e-02
8.966340609221e-01+j1.092856115779e-02
8.945135488968e-01+j8.603863364472e-03
8.925718250508e-01+j6.736008114121e-03
8.908216594235e-01+j5.248014522760e-03
8.892648963363e-01+j4.071518079839e-03
8.878954596132e-01+j3.147369681963e-03
8.867019767005e-01+j2.425510208902e-03
8.856699210049e-01+j1.864354018587e-03
8.847832584959e-01+j1.429889322876e-03
8.840256409334e-01+j1.094658793299e-03
8.833812169869e-01+j8.367352845242e-04
8.828351410839e-01+j6.387645233319e-04
8.823738556511e-01+j4.871130022185e-04
8.819852117532e-01+j3.711356215658e-04
8.816584803019e-01+j2.825624703632e-04
8.813842935827e-01+j2.149954987269e-04
8.811545460789e-01+j1.635017343878e-04
8.809622748828e-01+j1.242884992408e-04
8.808015333235e-01+j9.444658510561e-05
8.806672665240e-01+j7.174872684012e-05
8.805551941116e-01+j5.449244214721e-05
8.804617028861e-01+j4.137808143092e-05
8.803837506490e-01+j3.141458183208e-05
8.803187813631e-01+j2.384687143575e-05
8.802646511864e-01+j1.810010047707e-05
8.802195645725e-01+j1.373689350487e-05
8.801820194622e-01+j1.042464154929e-05
8.801507605405e-01+j7.910513421974e-06
8.801247395519e-01+j6.002387781809e-06
8.801030817333e-01+j4.554317809034e-06
8.800850575056e-01+j3.455460293062e-06
8.800700586578e-01+j2.621649229084e-06
8.800575783510e-01+j1.988985893552e-06
</dep>
<dep ac.v(outputv1) frequency>
-8.799975712067e-01+j0.000000000000e+00
-8.799975712067e-01+j0.000000000000e+00
-8.799975712067e-01+j0.000000000000e+00
-8.799975712067e-01+j0.000000000000e+00
-8.799975712067e-01+j0.000000000000e+00
-8.799975712067e-01+j0.000000000000e+00
-8.799975712067e-01+j0.000000000000e+00
-8.799975712067e-01+j0.000000000000e+00
-8.799975712067e-01+j0.000000000000e+00
-8.799975712067e-01+j0.000000000000e+00
-8.799975712067e-01+j0.000000000000e+00
-8.799975712067e-01+j0.000000000000e+00
-8.799975712067e-01+j0.000000000000e+00
-8.799975712067e-01+j0.000000000000e+00
-8.799975712067e-01+j0.000000000000e+00
-8.799975712067e-01+j0.000000000000e+00
-8.799975712067e-01+j0.000000000000e+00
-8.799975712067e-01+j0.000000000000e+00
-8.799975712067e-01+j0.000000000000e+00
-8.799975712067e-01+j0.000000000000e+00
-8.799975712067e-01+j0.000000000000e+00
-8.799975712067e-01+j0.000000000000e+00
-8.799975712067e-01+j0.000000000000e+00
-8.799975712067e-01+j0.000000000000e+00
-8.799975712067e-01+j0.000000000000e+00
-8.799975712067e-01+j0.000000000000e+00
-8.799975712067e-01+j0.000000000000e+00
-8.799975712067e-01+j0.000000000000e+00
-8.799975712067e-01+j0.000000000000e+00
-8.799975712067e-01+j0.000000000000e+00
-8.799975712067e-01+j0.000000000000e+00
-8.799975712067e-01+j0.000000000000e+00
-8.799975712067e-01+j0.000000000000e+00
-8.799975712067e-01+j0.000000000000e+00
-8.799975712067e-01+j0.000000000000e+00
-8.799975712067e-01+j0.000000000000e+00
-8.799975712067e-01+j0.000000000000e+00
-8.799975712067e-01+j0.000000000000e+00
-8.799975712067e-01+j0.000000000000e+00
-8.799975712067e-01+j0.000000000000e+00
-8.799975712067e-01+j0.000000000000e+00
-8.799975712067e-01+j0.000000000000e+00
-8.799975712067e-01+j0.000000000000e+00
-8.799975712067e-01+j0.000000000000e+00
-8.799975712067e-01+j0.000000000000e+00
-8.799975712067e-01+j0.000000000000e+00
-8.799975712067e-01+j0.000000000000e+00
-8.799975712067e-01+j0.000000000000e+00
-8.799975712067e-01+j0.000000000000e+00
-8.799975712067e-01+j0.000000000000e+00
-8.799975712067e-01+j0.000000000000e+00
-8.799975712067e-01+j0.000000000000e+00
-8.799975712067e-01+j0.000000000000e+00
-8.799975712067e-01+j0.000000000000e+00
-8.799975712067e-01+j0.000000000000e+00
-8.799975712067e-01+j0.000000000000e+00
-8.799975712067e-01+j0.000000000000e+00
-8.799975712067e-01+j0.000000000000e+00
-8.799975712067e-01+j0.000000000000e+00
-8.799975712067e-01+j0.000000000000e+00
-8.799975712067e-01+j0.000000000000e+00
-8.799975712067e-01+j0.000000000000e+00
-8.799975712067e-01+j0.000000000000e+00
-8.799975712067e-01+j0.000000000000e+00
-8.799975712067e-01+j0.000000000000e+00
-8.799975712067e-01+j0.000000000000e+00
-8.799975712067e-01+j0.000000000000e+00
-8.799975712067e-01+j0.000000000000e+00
-8.799975712067e-01+j0.000000000000e+00
-8.799975712067e-01+j0.000000000000e+00
-8.799975712067e-01+j0.000000000000e+00
-8.799975712067e-01+j0.000000000000e+00
-8.799975712067e-01+j0.000000000000e+00
-8.799975712067e-01+j0.000000000000e+00
-8.799975712067e-01+j0.000000000000e+00
-8.799975712067e-01+j0.000000000000e+00
-8.799975712067e-01+j0.000000000000e+00
-8.799975712067e-01+j0.000000000000e+00
-8.799975712067e-01+j0.000000000000e+00
-8.799975712067e-01+j0.000000000000e+00
-8.799975712067e-01+j0.000000000000e+00
-8.799975712067e-01+j0.000000000000e+00
-8.799975712067e-01+j0.000000000000e+00
</dep>
<dep ac.v(probepoint) frequency>
1.210639269529e-03+j9.905846180942e-03
1.452337171363e-03+j1.083318187116e-02
1.741492213932e-03+j1.184113827977e-02
2.087082747202e-03+j1.293478074140e-02
2.499638423394e-03+j1.411885805620e-02
2.991444358817e-03+j1.539754795261e-02
3.576743523096e-03+j1.677412408550e-02
4.271921689718e-03+j1.825052875192e-02
5.095651782373e-03+j1.982683554147e-02
6.068964981641e-03+j2.150058832603e-02
7.215204673880e-03+j2.326600862151e-02
8.559806943876e-03+j2.511307405172e-02
1.012983945117e-02+j2.702648824164e-02
1.195322209421e-02+j2.898458862689e-02
1.405755237533e-02+j3.095827417362e-02
1.646847197467e-02+j3.291007863999e-02
1.920754581485e-02+j3.479356208104e-02
2.228968709301e-02+j3.655323416414e-02
2.572025353021e-02+j3.812524231022e-02
2.949205512437e-02+j3.943903636814e-02
3.358263300753e-02+j4.042014086564e-02
3.795225968978e-02+j4.099401664890e-02
4.254313122314e-02+j4.109078666630e-02
4.728013435400e-02+j4.065037392433e-02
5.207336316671e-02+j3.962741625024e-02
5.682225762967e-02+j3.799525299983e-02
6.142091223781e-02+j3.574837229004e-02
6.576385268987e-02+j3.290296310771e-02
6.975148613222e-02+j2.949557453712e-02
7.329453051190e-02+j2.558024267407e-02
7.631698981654e-02+j2.122470112020e-02
7.875758153180e-02+j1.650637867045e-02
8.056984175161e-02+j1.150880240827e-02
8.172135449959e-02+j6.318811841002e-03
8.219263907743e-02+j1.024720933089e-03
8.197618725685e-02-j4.284692090020e-03
8.107600095515e-02-j9.520684238461e-03
7.950777951359e-02-j1.459496451593e-02
7.729968162069e-02-j1.942047077030e-02
7.449337577289e-02-j2.391286776766e-02
7.114493121208e-02-j2.799295699667e-02
6.732502635824e-02-j3.158995003376e-02
6.311799650196e-02-j3.464529141913e-02
5.861941976353e-02-j3.711648542134e-02
5.393222717214e-02-j3.898025390376e-02
4.916165475691e-02-j4.023438372867e-02
4.440964056394e-02-j4.089782232305e-02
3.976941982923e-02-j4.100890278580e-02
3.532104050754e-02-j4.062193387909e-02
3.112832388981e-02-j3.980267396066e-02
2.723749975448e-02-j3.862334984352e-02
2.367744339695e-02-j3.715786409436e-02
2.046120975810e-02-j3.547769130711e-02
1.758843687058e-02-j3.364875789383e-02
1.504817565652e-02-j3.172939384858e-02
1.282176690267e-02-j2.976928244263e-02
1.088549061109e-02-j2.780923318648e-02
9.212824119311e-03-j2.588156203287e-02
7.776241198178e-03-j2.401086625453e-02
6.548554669680e-03-j2.221501196570e-02
5.503848959758e-03-j2.050619434359e-02
4.618070644606e-03-j1.889197330618e-02
3.869350637162e-03-j1.737622447298e-02
3.238127205136e-03-j1.595997412947e-02
2.707129344491e-03-j1.464210748571e-02
2.261268536989e-03-j1.341995288977e-02
1.887475680631e-03-j1.228975242290e-02
1.574510089400e-03-j1.124703305701e-02
1.312759336038e-03-j1.028689364861e-02
1.094042378914e-03-j9.404222519786e-03
9.114236828297e-04-j8.593858978396e-03
7.590426417320e-04-j7.850710353038e-03
6.319602564209e-04-j7.169834271344e-03
5.260234571630e-04-j6.546494167775e-03
4.377464765890e-04-j5.976194456849e-03
3.642081035103e-04-j5.454700480660e-03
3.029633549055e-04-j4.978047234747e-03
2.519679965152e-04-j4.542539975521e-03
2.095143542366e-04-j4.144749089649e-03
1.741769412432e-04-j3.781501033413e-03
1.447665470282e-04-j3.449866701461e-03
1.202915729068e-04-j3.147148236154e-03
9.992554017577e-05-j2.870865020416e-03
</dep>
<dep ac.v(subv) frequency>
8.008226662542e-01-j2.056210434317e-01
7.953094665464e-01-j2.253628912920e-01
7.886056683534e-01-j2.469533492393e-01
7.804400897788e-01-j2.705381904465e-01
7.704756951879e-01-j2.962584597154e-01
7.582933491600e-01-j3.242393601451e-01
7.433725301289e-01-j3.545722574034e-01
7.250696911289e-01-j3.872862662521e-01
7.025965315691e-01-j4.223045009443e-01
6.750034734712e-01-j4.593786745158e-01
6.411789786072e-01-j4.979951344946e-01
5.998838461764e-01-j5.372475598687e-01
5.498511582195e-01-j5.756802350608e-01
4.899935287305e-01-j6.111270613178e-01
4.197583800323e-01-j6.406111281141e-01
3.396359362919e-01-j6.604242737815e-01
2.517253043130e-01-j6.665439198416e-01
1.601046483241e-01-j6.554906342677e-01
7.063139894792e-02-j6.255038532537e-01
-1.008116932726e-02-j5.775642026860e-01
-7.629894990983e-02-j5.156148313188e-01
-1.246767704169e-01-j4.456644105594e-01
-1.548676774244e-01-j3.741597842381e-01
-1.690367425707e-01-j3.064621694322e-01
-1.707394144055e-01-j2.460492861394e-01
-1.638045967054e-01-j1.945045243123e-01
-1.516007193158e-01-j1.519726912964e-01
-1.367283507873e-01-j1.177262119835e-01
-1.210068762110e-01-j9.063329815066e-02
-1.056028700239e-01-j6.946750940719e-02
-9.119576316053e-02-j5.307844924846e-02
-7.812859621959e-02-j4.046704490970e-02
-6.652611376826e-02-j3.080480019627e-02
-5.637969385017e-02-j2.342453355651e-02
-4.760504773705e-02-j1.779920649897e-02
-4.007974500632e-02-j1.351780524427e-02
-3.366666528150e-02-j1.026257355881e-02
-2.822801799437e-02-j7.789304093149e-03
-2.363322857913e-02-j5.911074364905e-03
-1.976294064683e-02-j4.485207367562e-03
-1.651062687089e-02-j3.403007219417e-03
-1.378277911384e-02-j2.581775435278e-03
-1.149829780339e-02-j1.958650423916e-03
-9.587469546474e-03-j1.485879345870e-03
-7.990771735659e-03-j1.127202544802e-03
-6.657646303068e-03-j8.550956583035e-04
-5.545323371341e-03-j6.486695570960e-04
-4.617737046400e-03-j4.920730899516e-04
-3.844551892861e-03-j3.732792382311e-04
-3.200304428510e-03-j2.831631629609e-04
-2.663655816893e-03-j2.148022246336e-04
-2.216747585683e-03-j1.629446750918e-04
-1.844650204336e-03-j1.236064517528e-04
-1.534893784859e-03-j9.376522691017e-05
-1.277070428220e-03-j7.112827429176e-05
-1.062498448449e-03-j5.395635363927e-05
-8.839396313963e-04-j4.093010080019e-05
-7.353616817350e-04-j3.104866758248e-05
-6.117389955465e-04-j2.355282872305e-05
-5.088858197014e-04-j1.786665072243e-05
-4.233166999376e-04-j1.355324216721e-05
-3.521298682867e-04-j1.028118641113e-05
-2.929098772362e-04-j7.799077894315e-06
-2.436463575978e-04-j5.916205826710e-06
-2.026662668506e-04-j4.487901190347e-06
-1.685774131795e-04-j3.404421265513e-06
-1.402213960840e-04-j2.582517661392e-06
-1.166344055072e-04-j1.959040002626e-06
-9.701457547345e-05-j1.486083823825e-06
-8.069480202520e-05-j1.127309868236e-06
-6.712011480302e-05-j8.551519887175e-07
-5.582884215404e-05-j6.486991232346e-07
-4.643693568956e-05-j4.920886085401e-07
-3.862492561389e-05-j3.732873837425e-07
-3.212706620860e-05-j2.831674385475e-07
-2.672230437459e-05-j2.148044689661e-07
-2.222676547247e-05-j1.629458532297e-07
-1.848750185035e-05-j1.236070702338e-07
-1.537729208115e-05-j9.376555161024e-08
-1.279031445481e-05-j7.112844477023e-08
-1.063854786040e-05-j5.395644315394e-08
-8.848777834356e-06-j4.093014780735e-08
-7.360106067546e-06-j3.104869227061e-08
</dep>
<dep ac.odb frequency>
-6.956606353205e+00+j0.000000000000e+00
-6.922618194383e+00+j0.000000000000e+00
-6.882298501332e+00+j0.000000000000e+00
-6.834589151139e+00+j0.000000000000e+00
-6.778304140583e+00+j0.000000000000e+00
-6.712133795518e+00+j0.000000000000e+00
-6.634658297919e+00+j0.000000000000e+00
-6.544373585922e+00+j0.000000000000e+00
-6.439732725728e+00+j0.000000000000e+00
-6.319205404078e+00+j0.000000000000e+00
-6.181357031536e+00+j0.000000000000e+00
-6.024946915207e+00+j0.000000000000e+00
-5.849042031895e+00+j0.000000000000e+00
-5.653139330552e+00+j0.000000000000e+00
-5.437285749547e+00+j0.000000000000e+00
-5.202182071731e+00+j0.000000000000e+00
-4.949255310680e+00+j0.000000000000e+00
-4.680685328318e+00+j0.000000000000e+00
-4.399375170211e+00+j0.000000000000e+00
-4.108860848342e+00+j0.000000000000e+00
-3.813164030948e+00+j0.000000000000e+00
-3.516598936926e+00+j0.000000000000e+00
-3.223551252129e+00+j0.000000000000e+00
-2.938250933388e+00+j0.000000000000e+00
-2.664561655238e+00+j0.000000000000e+00
-2.405807232941e+00+j0.000000000000e+00
-2.164650019933e+00+j0.000000000000e+00
-1.943028940270e+00+j0.000000000000e+00
-1.742156784700e+00+j0.000000000000e+00
-1.562569121150e+00+j0.000000000000e+00
-1.404211881660e+00+j0.000000000000e+00
-1.266552087342e+00+j0.000000000000e+00
-1.148696280139e+00+j0.000000000000e+00
-1.049503481442e+00+j0.000000000000e+00
-9.676830187326e-01+j0.000000000000e+00
-9.018714789836e-01+j0.000000000000e+00
-8.506867115079e-01+j0.000000000000e+00
-8.127598642311e-01+j0.000000000000e+00
-7.867487951162e-01+j0.000000000000e+00
-7.713378786875e-01+j0.000000000000e+00
-7.652302469064e-01+j0.000000000000e+00
-7.671388050936e-01+j0.000000000000e+00
-7.757818187190e-01+j0.000000000000e+00
-7.898873773414e-01+j0.000000000000e+00
-8.082086878449e-01+j0.000000000000e+00
-8.295493016466e-01+j0.000000000000e+00
-8.527946856764e-01+j0.000000000000e+00
-8.769447386937e-01+j0.000000000000e+00
-9.011414621934e-01+j0.000000000000e+00
-9.246870975685e-01+j0.000000000000e+00
-9.470502170754e-01+j0.000000000000e+00
-9.678597687878e-01+j0.000000000000e+00
-9.868891866629e-01+j0.000000000000e+00
-1.004033916611e+00+j0.000000000000e+00
-1.019285982178e+00+j0.000000000000e+00
-1.032708726787e+00+j0.000000000000e+00
-1.044413971195e+00+j0.000000000000e+00
-1.054542846332e+00+j0.000000000000e+00
-1.063250727399e+00+j0.000000000000e+00
-1.070696105077e+00+j0.000000000000e+00
-1.077032888093e+00+j0.000000000000e+00
-1.082405489590e+00+j0.000000000000e+00
-1.086946043086e+00+j0.000000000000e+00
-1.090773163460e+00+j0.000000000000e+00
-1.093991770634e+00+j0.000000000000e+00
-1.096693600754e+00+j0.000000000000e+00
-1.098958126659e+00+j0.000000000000e+00
-1.100853689947e+00+j0.000000000000e+00
-1.102438710144e+00+j0.000000000000e+00
-1.103762883691e+00+j0.000000000000e+00
-1.104868319679e+00+j0.000000000000e+00
-1.105790583024e+00+j0.000000000000e+00
-1.106559631897e+00+j0.000000000000e+00
-1.107200646604e+00+j0.000000000000e+00
-1.107734753561e+00+j0.000000000000e+00
-1.108179651658e+00+j0.000000000000e+00
-1.108550150165e+00+j0.000000000000e+00
-1.108858627942e+00+j0.000000000000e+00
-1.109115423616e+00+j0.000000000000e+00
-1.109329165832e+00+j0.000000000000e+00
-1.109507051925e+00+j0.000000000000e+00
-1.109655082471e+00+j0.000000000000e+00
-1.109778258291e+00+j0.000000000000e+00
</dep>
<dep ac.tdb frequency>
-5.299451019720e-01+j0.000000000000e+00
-5.236104385681e-01+j0.000000000000e+00
-5.163959006076e-01+j0.000000000000e+00
-5.082970457675e-01+j0.000000000000e+00
-4.993816836959e-01+j0.000000000000e+00
-4.898337460270e-01+j0.000000000000e+00
-4.800163226004e-01+j0.000000000000e+00
-4.705600214632e-01+j0.000000000000e+00
-4.624831184622e-01+j0.000000000000e+00
-4.573483089254e-01+j0.000000000000e+00
-4.574548037406e-01+j0.000000000000e+00
-4.660496862296e-01+j0.000000000000e+00
-4.875122125836e-01+j0.000000000000e+00
-5.274114249120e-01+j0.000000000000e+00
-5.922589413964e-01+j0.000000000000e+00
-6.886961816713e-01+j0.000000000000e+00
-8.218434933752e-01+j0.000000000000e+00
-9.927468700540e-01+j0.000000000000e+00
-1.195441849076e+00+j0.000000000000e+00
-1.415023664523e+00+j0.000000000000e+00
-1.628613049591e+00+j0.000000000000e+00
-1.810218915123e+00+j0.000000000000e+00
-1.938057032146e+00+j0.000000000000e+00
-2.000693350610e+00+j0.000000000000e+00
-1.998852410471e+00+j0.000000000000e+00
-1.942715541007e+00+j0.000000000000e+00
-1.847127466914e+00+j0.000000000000e+00
-1.727322566111e+00+j0.000000000000e+00
-1.596372493066e+00+j0.000000000000e+00
-1.464251724593e+00+j0.000000000000e+00
-1.337908314990e+00+j0.000000000000e+00
-1.221777363748e+00+j0.000000000000e+00
-1.118393054823e+00+j0.000000000000e+00
-1.028939388290e+00+j0.000000000000e+00
-9.536876012601e-01+j0.000000000000e+00
-8.923186395849e-01+j0.000000000000e+00
-8.441476588675e-01+j0.000000000000e+00
-8.082717170370e-01+j0.000000000000e+00
-7.836606069316e-01+j0.000000000000e+00
-7.692081381548e-01+j0.000000000000e+00
-7.637585133933e-01+j0.000000000000e+00
-7.661199831842e-01+j0.000000000000e+00
-7.750754740561e-01+j0.000000000000e+00
