<Qucs Dataset 0.0.22>
<indep frequency 103>
2.000000000000e+01
2.140137911386e+01
2.290095139877e+01
2.450559714766e+01
2.622267874843e+01
2.806007446381e+01
3.002621457816e+01
3.213012007707e+01
3.438144403717e+01
3.679051591608e+01
3.936838894573e+01
4.212689084648e+01
4.507867809470e+01
4.823729399282e+01
5.161723080836e+01
5.523399626688e+01
5.910418470406e+01
6.324555320337e+01
6.767710306856e+01
7.241916700492e+01
7.749350240912e+01
8.292339119594e+01
8.873374661957e+01
9.495122757995e+01
1.016043609383e+02
1.087236724031e+02
1.163418265875e+02
1.244937768799e+02
1.332169258162e+02
1.425512966888e+02
1.525397171805e+02
1.632280158650e+02
1.746652324766e+02
1.869038429121e+02
2.000000000000e+02
2.140137911386e+02
2.290095139877e+02
2.450559714766e+02
2.622267874843e+02
2.806007446381e+02
3.002621457816e+02
3.213012007707e+02
3.438144403717e+02
3.679051591608e+02
3.936838894573e+02
4.212689084648e+02
4.507867809470e+02
4.823729399282e+02
5.161723080836e+02
5.523399626688e+02
5.910418470406e+02
6.324555320337e+02
6.767710306856e+02
7.241916700492e+02
7.749350240912e+02
8.292339119594e+02
8.873374661957e+02
9.495122757995e+02
1.016043609383e+03
1.087236724031e+03
1.163418265875e+03
1.244937768799e+03
1.332169258162e+03
1.425512966888e+03
1.525397171805e+03
1.632280158650e+03
1.746652324766e+03
1.869038429121e+03
2.000000000000e+03
2.140137911386e+03
2.290095139877e+03
2.450559714766e+03
2.622267874843e+03
2.806007446381e+03
3.002621457816e+03
3.213012007707e+03
3.438144403717e+03
3.679051591608e+03
3.936838894573e+03
4.212689084648e+03
4.507867809470e+03
4.823729399282e+03
5.161723080836e+03
5.523399626688e+03
5.910418470406e+03
6.324555320337e+03
6.767710306856e+03
7.241916700492e+03
7.749350240912e+03
8.292339119594e+03
8.873374661957e+03
9.495122757995e+03
1.016043609383e+04
1.087236724031e+04
1.163418265875e+04
1.244937768799e+04
1.332169258162e+04
1.425512966888e+04
1.525397171805e+04
1.632280158650e+04
1.746652324766e+04
1.869038429121e+04
2.000000000000e+04
</indep>
<dep ac.v(cmrr) frequency>
4.985162177085e-03+j2.174844440358e-06
4.985162179639e-03+j2.327233519075e-06
4.985162182564e-03+j2.490300341393e-06
4.985162185915e-03+j2.664793085657e-06
4.985162189749e-03+j2.851512354282e-06
4.985162194140e-03+j3.051314847061e-06
4.985162199170e-03+j3.265117291847e-06
4.985162204927e-03+j3.493900650657e-06
4.985162211520e-03+j3.738714620487e-06
4.985162219070e-03+j4.000682449507e-06
4.985162227715e-03+j4.281006090719e-06
4.985162237612e-03+j4.580971716706e-06
4.985162248946e-03+j4.901955620826e-06
4.985162261925e-03+j5.245430531873e-06
4.985162276784e-03+j5.612972371208e-06
4.985162293800e-03+j6.006267483356e-06
4.985162313285e-03+j6.427120373236e-06
4.985162335595e-03+j6.877461985545e-06
4.985162361141e-03+j7.359358564254e-06
4.985162390392e-03+j7.875021132886e-06
4.985162423887e-03+j8.426815639072e-06
4.985162462240e-03+j9.017273809915e-06
4.985162506156e-03+j9.649104767989e-06
4.985162556442e-03+j1.032520746124e-05
4.985162614020e-03+j1.104868396389e-05
4.985162679952e-03+j1.182285370920e-05
4.985162755446e-03+j1.265126871970e-05
4.985162841891e-03+j1.353772990435e-05
4.985162940874e-03+j1.448630449787e-05
4.985163054216e-03+j1.550134472180e-05
4.985163183993e-03+j1.658750775327e-05
4.985163332598e-03+j1.774977709295e-05
4.985163502758e-03+j1.899348543011e-05
4.985163697598e-03+j2.032433910995e-05
4.985163920698e-03+j2.174844431523e-05
4.985164176160e-03+j2.327233508249e-05
4.985164468675e-03+j2.490300328129e-05
4.985164803620e-03+j2.664793069404e-05
4.985165187148e-03+j2.851512334368e-05
4.985165626305e-03+j3.051314822661e-05
4.985166129160e-03+j3.265117261950e-05
4.985166704954e-03+j3.493900614024e-05
4.985167364265e-03+j3.738714575601e-05
4.985168119207e-03+j4.000682394511e-05
4.985168983652e-03+j4.281006023332e-05
4.985169973484e-03+j4.580971634139e-05
4.985171106887e-03+j4.901955519658e-05
4.985172404685e-03+j5.245430407912e-05
4.985173890730e-03+j5.612972219323e-05
4.985175592320e-03+j6.006267297252e-05
4.985177540723e-03+j6.427120145209e-05
4.985179771735e-03+j6.877461706149e-05
4.985182326351e-03+j7.359358221913e-05
4.985185251509e-03+j7.875020713424e-05
4.985188600953e-03+j8.426815125113e-05
4.985192436224e-03+j9.017273180169e-05
4.985196827792e-03+j9.649103996375e-05
4.985201856346e-03+j1.032520651580e-04
4.985207614283e-03+j1.104868280546e-04
4.985214207392e-03+j1.182285228980e-04
4.985221756817e-03+j1.265126698053e-04
4.985230401266e-03+j1.353772777339e-04
4.985240299572e-03+j1.448630188684e-04
4.985251633601e-03+j1.550134152256e-04
4.985264611605e-03+j1.658750383331e-04
4.985279472034e-03+j1.774977228990e-04
4.985296487936e-03+j1.899347954503e-04
4.985315971949e-03+j2.032433189908e-04
4.985338282071e-03+j2.174843547990e-04
4.985363828220e-03+j2.327232425674e-04
4.985393079773e-03+j2.490299001672e-04
4.985426574192e-03+j2.664791444122e-04
4.985464926890e-03+j2.851510342943e-04
4.985508842552e-03+j3.051312382608e-04
4.985559128069e-03+j3.265114272203e-04
4.985616707368e-03+j3.493896950747e-04
4.985682638396e-03+j3.738710087061e-04
4.985758132548e-03+j4.000676894794e-04
4.985844576926e-03+j4.280999284640e-04
4.985943559830e-03+j4.580963377354e-04
4.986056899937e-03+j4.901945402789e-04
4.986186679714e-03+j5.245418011919e-04
4.986335283686e-03+j5.612957030763e-04
4.986505442241e-03+j6.006248687019e-04
4.986700281798e-03+j6.427097342466e-04
4.986923382253e-03+j6.877433766412e-04
4.987178842748e-03+j7.359323987927e-04
4.987471356982e-03+j7.874978767217e-04
4.987806299453e-03+j8.426763729284e-04
4.988189824200e-03+j9.017210205915e-04
4.988628977866e-03+j9.649026835314e-04
4.989131829161e-03+j1.032511197195e-03
4.989707617100e-03+j1.104856696283e-03
4.990366920749e-03+j1.182271035023e-03
4.991121853565e-03+j1.265109306494e-03
4.991986285944e-03+j1.353751467826e-03
4.992976100038e-03+j1.448604078587e-03
4.994109481498e-03+j1.550102160107e-03
4.995407253567e-03+j1.658711184035e-03
4.996893259578e-03+j1.774929198938e-03
4.998594800931e-03+j1.899289104325e-03
5.000543138563e-03+j2.032361082078e-03
5.002774067145e-03+j2.174755195871e-03
</dep>
<dep ac.v(outneg) frequency>
-9.949439619231e-01+j9.421687610700e-06
-9.949439619153e-01+j1.008185542241e-05
-9.949439619064e-01+j1.078828050326e-05
-9.949439618961e-01+j1.154420405180e-05
-9.949439618844e-01+j1.235309437395e-05
-9.949439618710e-01+j1.321866279623e-05
-9.949439618556e-01+j1.414488069392e-05
-9.949439618380e-01+j1.513599771242e-05
-9.949439618179e-01+j1.619656126535e-05
-9.949439617948e-01+j1.733143739885e-05
-9.949439617684e-01+j1.854583311782e-05
-9.949439617381e-01+j1.984532027656e-05
-9.949439617035e-01+j2.123586114339e-05
-9.949439616638e-01+j2.272383575654e-05
-9.949439616184e-01+j2.431607119682e-05
-9.949439615664e-01+j2.601987291151e-05
-9.949439615068e-01+j2.784305823292e-05
-9.949439614386e-01+j2.979399224565e-05
-9.949439613606e-01+j3.188162616707e-05
-9.949439612712e-01+j3.411553841697e-05
-9.949439611688e-01+j3.650597856501e-05
-9.949439610516e-01+j3.906391435747e-05
-9.949439609173e-01+j4.180108203916e-05
-9.949439607636e-01+j4.473004020127e-05
-9.949439605877e-01+j4.786422740235e-05
-9.949439603861e-01+j5.121802382667e-05
-9.949439601554e-01+j5.480681726295e-05
-9.949439598912e-01+j5.864707370619e-05
-9.949439595887e-01+j6.275641290636e-05
-9.949439592422e-01+j6.715368921088e-05
-9.949439588456e-01+j7.185907807149e-05
-9.949439583914e-01+j7.689416861268e-05
-9.949439578713e-01+j8.228206268626e-05
-9.949439572758e-01+j8.804748086644e-05
-9.949439565939e-01+j9.421687587210e-05
-9.949439558131e-01+j1.008185539363e-04
-9.949439549191e-01+j1.078828046800e-04
-9.949439538954e-01+j1.154420400859e-04
-9.949439527232e-01+j1.235309432101e-04
-9.949439513809e-01+j1.321866273136e-04
-9.949439498440e-01+j1.414488061443e-04
-9.949439480841e-01+j1.513599761503e-04
-9.949439460690e-01+j1.619656114602e-04
-9.949439437616e-01+j1.733143725263e-04
-9.949439411195e-01+j1.854583293866e-04
-9.949439380942e-01+j1.984532005705e-04
-9.949439346301e-01+j2.123586087443e-04
-9.949439306635e-01+j2.272383542697e-04
-9.949439261215e-01+j2.431607079302e-04
-9.949439209208e-01+j2.601987241674e-04
-9.949439149657e-01+j2.784305762669e-04
-9.949439081468e-01+j2.979399150285e-04
-9.949439003389e-01+j3.188162525693e-04
-9.949438913985e-01+j3.411553730179e-04
-9.949438811612e-01+j3.650597719860e-04
-9.949438694391e-01+j3.906391268324e-04
-9.949438560167e-01+j4.180107998777e-04
-9.949438406475e-01+j4.473003768774e-04
-9.949438230489e-01+j4.786422432257e-04
-9.949438028978e-01+j5.121802005307e-04
-9.949437798237e-01+j5.480681263924e-04
-9.949437534028e-01+j5.864706804084e-04
-9.949437231497e-01+j6.275640596473e-04
-9.949436885084e-01+j6.715368070544e-04
-9.949436488424e-01+j7.185906764995e-04
-9.949436034230e-01+j7.689415584339e-04
-9.949435514156e-01+j8.228204704030e-04
-9.949434918647e-01+j8.804746169574e-04
-9.949434236761e-01+j9.421685238265e-04
-9.949433455969e-01+j1.008185251551e-03
-9.949432561925e-01+j1.078827694150e-03
-9.949431538202e-01+j1.154419968764e-03
-9.949430365991e-01+j1.235308902664e-03
-9.949429023753e-01+j1.321865624427e-03
-9.949427486827e-01+j1.414487266594e-03
-9.949425726974e-01+j1.513598787590e-03
-9.949423711859e-01+j1.619654921287e-03
-9.949421404456e-01+j1.733142263118e-03
-9.949418762371e-01+j1.854581502329e-03
-9.949415737058e-01+j1.984529810571e-03
-9.949412272932e-01+j2.123583397790e-03
-9.949408306343e-01+j2.272380247120e-03
-9.949403764412e-01+j2.431603041297e-03
-9.949398563686e-01+j2.601982293989e-03
-9.949392608609e-01+j2.784299700370e-03
-9.949385789766e-01+j2.979391722274e-03
-9.949377981869e-01+j3.188153424302e-03
-9.949369041461e-01+j3.411542578431e-03
-9.949358804274e-01+j3.650584055851e-03
-9.949347082215e-01+j3.906374526093e-03
-9.949333659911e-01+j4.180087484864e-03
-9.949318290748e-01+j4.472978633499e-03
-9.949300692342e-01+j4.786391634523e-03
-9.949280541354e-01+j5.121764269482e-03
-9.949257467544e-01+j5.480635027002e-03
-9.949231046974e-01+j5.864650150948e-03
-9.949200794216e-01+j6.275571180573e-03
-9.949166153437e-01+j6.715283016707e-03
-9.949126488187e-01+j7.185802550334e-03
-9.949081069707e-01+j7.689287892346e-03
-9.949029063540e-01+j8.228048245785e-03
-9.948969514206e-01+j8.804554464697e-03
-9.948901327651e-01+j9.421450346502e-03
</dep>
<dep ac.v(outpos) frequency>
1.004914286277e+00-j5.071998729984e-06
1.004914286275e+00-j5.427388384262e-06
1.004914286271e+00-j5.807679820477e-06
1.004914286268e+00-j6.214617880484e-06
1.004914286264e+00-j6.650069665385e-06
1.004914286259e+00-j7.116033102105e-06
1.004914286254e+00-j7.614646110223e-06
1.004914286248e+00-j8.148196411109e-06
1.004914286241e+00-j8.719132024380e-06
1.004914286233e+00-j9.330072499833e-06
1.004914286224e+00-j9.983820936381e-06
1.004914286213e+00-j1.068337684315e-05
1.004914286201e+00-j1.143194990174e-05
1.004914286188e+00-j1.223297469279e-05
1.004914286172e+00-j1.309012645441e-05
1.004914286154e+00-j1.400733794480e-05
1.004914286133e+00-j1.498881748644e-05
1.004914286110e+00-j1.603906827456e-05
1.004914286083e+00-j1.716290903856e-05
1.004914286052e+00-j1.836549615119e-05
1.004914286017e+00-j1.965234728686e-05
1.004914285976e+00-j2.102936673764e-05
1.004914285930e+00-j2.250287250319e-05
1.004914285877e+00-j2.407962527879e-05
1.004914285816e+00-j2.576685947458e-05
1.004914285746e+00-j2.757231640826e-05
1.004914285666e+00-j2.950427982356e-05
1.004914285575e+00-j3.157161389748e-05
1.004914285470e+00-j3.378380391063e-05
1.004914285351e+00-j3.615099976729e-05
1.004914285214e+00-j3.868406256494e-05
1.004914285057e+00-j4.139461442679e-05
1.004914284877e+00-j4.429509182604e-05
1.004914284671e+00-j4.739880264655e-05
1.004914284435e+00-j5.071998724165e-05
1.004914284165e+00-j5.427388377132e-05
1.004914283856e+00-j5.807679811741e-05
1.004914283503e+00-j6.214617869781e-05
1.004914283097e+00-j6.650069652270e-05
1.004914282634e+00-j7.116033086035e-05
1.004914282102e+00-j7.614646090532e-05
1.004914281494e+00-j8.148196386982e-05
1.004914280798e+00-j8.719131994818e-05
1.004914280000e+00-j9.330072463612e-05
1.004914279087e+00-j9.983820892000e-05
1.004914278041e+00-j1.068337678877e-04
1.004914276844e+00-j1.143194983511e-04
1.004914275473e+00-j1.223297461115e-04
1.004914273903e+00-j1.309012635438e-04
1.004914272105e+00-j1.400733782224e-04
1.004914270047e+00-j1.498881733627e-04
1.004914267690e+00-j1.603906809055e-04
1.004914264992e+00-j1.716290881310e-04
1.004914261901e+00-j1.836549587494e-04
1.004914258363e+00-j1.965234694838e-04
1.004914254312e+00-j2.102936632290e-04
1.004914249672e+00-j2.250287199502e-04
1.004914244360e+00-j2.407962465613e-04
1.004914238277e+00-j2.576685871165e-04
1.004914231313e+00-j2.757231547346e-04
1.004914223337e+00-j2.950427867818e-04
1.004914214205e+00-j3.157161249406e-04
1.004914203749e+00-j3.378380219104e-04
1.004914191776e+00-j3.615099766033e-04
1.004914178066e+00-j3.868405998332e-04
1.004914162367e+00-j4.139461126359e-04
1.004914144392e+00-j4.429508795023e-04
1.004914123809e+00-j4.739879789759e-04
1.004914100240e+00-j5.071998142286e-04
1.004914073253e+00-j5.427387664167e-04
1.004914042352e+00-j5.807678938159e-04
1.004914006969e+00-j6.214616799398e-04
1.004913966453e+00-j6.650068340752e-04
1.004913920060e+00-j7.116031479059e-04
1.004913866939e+00-j7.614644121536e-04
1.004913806112e+00-j8.148193974411e-04
1.004913736463e+00-j8.719129038744e-04
1.004913656711e+00-j9.330068841592e-04
1.004913565391e+00-j9.983816454014e-04
1.004913460825e+00-j1.068337135100e-03
1.004913341093e+00-j1.143194317232e-03
1.004913203994e+00-j1.223296644736e-03
1.004913047009e+00-j1.309011635145e-03
1.004912867253e+00-j1.400732556585e-03
1.004912661425e+00-j1.498880231877e-03
1.004912425741e+00-j1.603904968991e-03
1.004912155872e+00-j1.716288626717e-03
1.004911846860e+00-j1.836546824987e-03
1.004911493026e+00-j1.965231309994e-03
1.004911087870e+00-j2.102932484910e-03
1.004910623947e+00-j2.250282117802e-03
1.004910092733e+00-j2.407956239110e-03
1.004909484468e+00-j2.576678241958e-03
1.004908787977e+00-j2.757222199435e-03
1.004907990462e+00-j2.950416414014e-03
1.004907077269e+00-j3.157147215296e-03
1.004906031622e+00-j3.378363023400e-03
1.004904834307e+00-j3.615078696492e-03
1.004903463326e+00-j3.868380182263e-03
1.004901893490e+00-j4.139429494470e-03
1.004900095956e+00-j4.429470037135e-03
1.004898037698e+00-j4.739832300540e-03
1.004895680899e+00-j5.071939954759e-03
</dep>
<dep ac.comv frequency>
-4.604641334688e+01+j0.000000000000e+00
-4.604641322254e+01+j0.000000000000e+00
-4.604641308016e+01+j0.000000000000e+00
-4.604641291713e+01+j0.000000000000e+00
-4.604641273045e+01+j0.000000000000e+00
-4.604641251669e+01+j0.000000000000e+00
-4.604641227193e+01+j0.000000000000e+00
-4.604641199167e+01+j0.000000000000e+00
-4.604641167076e+01+j0.000000000000e+00
-4.604641130330e+01+j0.000000000000e+00
-4.604641088253e+01+j0.000000000000e+00
-4.604641040074e+01+j0.000000000000e+00
-4.604640984907e+01+j0.000000000000e+00
-4.604640921738e+01+j0.000000000000e+00
-4.604640849406e+01+j0.000000000000e+00
-4.604640766583e+01+j0.000000000000e+00
-4.604640671746e+01+j0.000000000000e+00
-4.604640563154e+01+j0.000000000000e+00
-4.604640438810e+01+j0.000000000000e+00
-4.604640296431e+01+j0.000000000000e+00
-4.604640133400e+01+j0.000000000000e+00
-4.604639946722e+01+j0.000000000000e+00
-4.604639732967e+01+j0.000000000000e+00
-4.604639488208e+01+j0.000000000000e+00
-4.604639207947e+01+j0.000000000000e+00
-4.604638887035e+01+j0.000000000000e+00
-4.604638519575e+01+j0.000000000000e+00
-4.604638098817e+01+j0.000000000000e+00
-4.604637617030e+01+j0.000000000000e+00
-4.604637065361e+01+j0.000000000000e+00
-4.604636433675e+01+j0.000000000000e+00
-4.604635710365e+01+j0.000000000000e+00
-4.604634882143e+01+j0.000000000000e+00
-4.604633933790e+01+j0.000000000000e+00
-4.604632847885e+01+j0.000000000000e+00
-4.604631604474e+01+j0.000000000000e+00
-4.604630180714e+01+j0.000000000000e+00
-4.604628550447e+01+j0.000000000000e+00
-4.604626683721e+01+j0.000000000000e+00
-4.604624546241e+01+j0.000000000000e+00
-4.604622098738e+01+j0.000000000000e+00
-4.604619296247e+01+j0.000000000000e+00
-4.604616087284e+01+j0.000000000000e+00
-4.604612412898e+01+j0.000000000000e+00
-4.604608205589e+01+j0.000000000000e+00
-4.604603388070e+01+j0.000000000000e+00
-4.604597871848e+01+j0.000000000000e+00
-4.604591555597e+01+j0.000000000000e+00
-4.604584323302e+01+j0.000000000000e+00
-4.604576042128e+01+j0.000000000000e+00
-4.604566559983e+01+j0.000000000000e+00
-4.604555702731e+01+j0.000000000000e+00
-4.604543270995e+01+j0.000000000000e+00
-4.604529036502e+01+j0.000000000000e+00
-4.604512737904e+01+j0.000000000000e+00
-4.604494075985e+01+j0.000000000000e+00
-4.604472708185e+01+j0.000000000000e+00
-4.604448242329e+01+j0.000000000000e+00
-4.604420229453e+01+j0.000000000000e+00
-4.604388155596e+01+j0.000000000000e+00
-4.604351432414e+01+j0.000000000000e+00
-4.604309386437e+01+j0.000000000000e+00
-4.604261246792e+01+j0.000000000000e+00
-4.604206131163e+01+j0.000000000000e+00
-4.604143029736e+01+j0.000000000000e+00
-4.604070786861e+01+j0.000000000000e+00
-4.603988080089e+01+j0.000000000000e+00
-4.603893396244e+01+j0.000000000000e+00
-4.603785004086e+01+j0.000000000000e+00
-4.603660923130e+01+j0.000000000000e+00
-4.603518888062e+01+j0.000000000000e+00
-4.603356308190e+01+j0.000000000000e+00
-4.603170221229e+01+j0.000000000000e+00
-4.602957240699e+01+j0.000000000000e+00
-4.602713496083e+01+j0.000000000000e+00
-4.602434564830e+01+j0.000000000000e+00
-4.602115395169e+01+j0.000000000000e+00
-4.601750218605e+01+j0.000000000000e+00
-4.601332450880e+01+j0.000000000000e+00
-4.600854580059e+01+j0.000000000000e+00
-4.600308040321e+01+j0.000000000000e+00
-4.599683069976e+01+j0.000000000000e+00
-4.598968552147e+01+j0.000000000000e+00
-4.598151836574e+01+j0.000000000000e+00
-4.597218541032e+01+j0.000000000000e+00
-4.596152330983e+01+j0.000000000000e+00
-4.594934676312e+01+j0.000000000000e+00
-4.593544584365e+01+j0.000000000000e+00
-4.591958309071e+01+j0.000000000000e+00
-4.590149036712e+01+j0.000000000000e+00
-4.588086549963e+01+j0.000000000000e+00
-4.585736873281e+01+j0.000000000000e+00
-4.583061904520e+01+j0.000000000000e+00
-4.580019039978e+01+j0.000000000000e+00
-4.576560802929e+01+j0.000000000000e+00
-4.572634489028e+01+j0.000000000000e+00
-4.568181845932e+01+j0.000000000000e+00
-4.563138808792e+01+j0.000000000000e+00
-4.557435317874e+01+j0.000000000000e+00
-4.550995249108e+01+j0.000000000000e+00
-4.543736492427e+01+j0.000000000000e+00
-4.535571215590e+01+j0.000000000000e+00
-4.526406352156e+01+j0.000000000000e+00
</dep>
<dep ac.comvl frequency>
4.985162177085e-03+j2.174844440358e-06
4.985162179639e-03+j2.327233519075e-06
4.985162182564e-03+j2.490300341393e-06
4.985162185915e-03+j2.664793085657e-06
4.985162189749e-03+j2.851512354282e-06
4.985162194141e-03+j3.051314847061e-06
4.985162199170e-03+j3.265117291847e-06
4.985162204927e-03+j3.493900650657e-06
4.985162211520e-03+j3.738714620487e-06
4.985162219070e-03+j4.000682449507e-06
4.985162227715e-03+j4.281006090719e-06
4.985162237612e-03+j4.580971716706e-06
4.985162248946e-03+j4.901955620826e-06
4.985162261925e-03+j5.245430531873e-06
4.985162276784e-03+j5.612972371208e-06
4.985162293800e-03+j6.006267483356e-06
4.985162313285e-03+j6.427120373236e-06
4.985162335595e-03+j6.877461985545e-06
4.985162361141e-03+j7.359358564254e-06
4.985162390392e-03+j7.875021132886e-06
4.985162423887e-03+j8.426815639072e-06
4.985162462240e-03+j9.017273809915e-06
4.985162506156e-03+j9.649104767989e-06
4.985162556442e-03+j1.032520746124e-05
4.985162614020e-03+j1.104868396389e-05
4.985162679952e-03+j1.182285370920e-05
4.985162755446e-03+j1.265126871970e-05
4.985162841891e-03+j1.353772990435e-05
4.985162940874e-03+j1.448630449787e-05
4.985163054216e-03+j1.550134472180e-05
4.985163183993e-03+j1.658750775327e-05
4.985163332598e-03+j1.774977709295e-05
4.985163502758e-03+j1.899348543011e-05
4.985163697598e-03+j2.032433910995e-05
4.985163920698e-03+j2.174844431523e-05
4.985164176160e-03+j2.327233508249e-05
4.985164468675e-03+j2.490300328129e-05
4.985164803620e-03+j2.664793069404e-05
4.985165187148e-03+j2.851512334368e-05
