<Qucs Dataset 0.0.22>
<indep frequency 103>
2.000000000000e+01
2.140137911386e+01
2.290095139877e+01
2.450559714766e+01
2.622267874843e+01
2.806007446381e+01
3.002621457816e+01
3.213012007707e+01
3.438144403717e+01
3.679051591608e+01
3.936838894573e+01
4.212689084648e+01
4.507867809470e+01
4.823729399282e+01
5.161723080836e+01
5.523399626688e+01
5.910418470406e+01
6.324555320337e+01
6.767710306856e+01
7.241916700492e+01
7.749350240912e+01
8.292339119594e+01
8.873374661957e+01
9.495122757995e+01
1.016043609383e+02
1.087236724031e+02
1.163418265875e+02
1.244937768799e+02
1.332169258162e+02
1.425512966888e+02
1.525397171805e+02
1.632280158650e+02
1.746652324766e+02
1.869038429121e+02
2.000000000000e+02
2.140137911386e+02
2.290095139877e+02
2.450559714766e+02
2.622267874843e+02
2.806007446381e+02
3.002621457816e+02
3.213012007707e+02
3.438144403717e+02
3.679051591608e+02
3.936838894573e+02
4.212689084648e+02
4.507867809470e+02
4.823729399282e+02
5.161723080836e+02
5.523399626688e+02
5.910418470406e+02
6.324555320337e+02
6.767710306856e+02
7.241916700492e+02
7.749350240912e+02
8.292339119594e+02
8.873374661957e+02
9.495122757995e+02
1.016043609383e+03
1.087236724031e+03
1.163418265875e+03
1.244937768799e+03
1.332169258162e+03
1.425512966888e+03
1.525397171805e+03
1.632280158650e+03
1.746652324766e+03
1.869038429121e+03
2.000000000000e+03
2.140137911386e+03
2.290095139877e+03
2.450559714766e+03
2.622267874843e+03
2.806007446381e+03
3.002621457816e+03
3.213012007707e+03
3.438144403717e+03
3.679051591608e+03
3.936838894573e+03
4.212689084648e+03
4.507867809470e+03
4.823729399282e+03
5.161723080836e+03
5.523399626688e+03
5.910418470406e+03
6.324555320337e+03
6.767710306856e+03
7.241916700492e+03
7.749350240912e+03
8.292339119594e+03
8.873374661957e+03
9.495122757995e+03
1.016043609383e+04
1.087236724031e+04
1.163418265875e+04
1.244937768799e+04
1.332169258162e+04
1.425512966888e+04
1.525397171805e+04
1.632280158650e+04
1.746652324766e+04
1.869038429121e+04
2.000000000000e+04
</indep>
<dep ac.v(outdif) frequency>
-1.047917221542e-05+j1.134269462957e-08
-1.047917220692e-05+j1.213746539688e-08
-1.047917219721e-05+j1.298792492193e-08
-1.047917218533e-05+j1.389797525801e-08
-1.047917217212e-05+j1.487179187052e-08
-1.047917215796e-05+j1.591384279604e-08
-1.047917214042e-05+j1.702890914168e-08
-1.047917212088e-05+j1.822210702170e-08
-1.047917209801e-05+j1.949891103133e-08
-1.047917207297e-05+j2.086517936406e-08
-1.047917204355e-05+j2.232718069229e-08
-1.047917200964e-05+j2.389162292686e-08
-1.047917197078e-05+j2.556568399509e-08
-1.047917192737e-05+j2.735704477355e-08
-1.047917187658e-05+j2.927392433158e-08
-1.047917181862e-05+j3.132511763784e-08
-1.047917175290e-05+j3.352003591696e-08
-1.047917167685e-05+j3.586874982750e-08
-1.047917158969e-05+j3.838203566960e-08
-1.047917149061e-05+j4.107142482444e-08
-1.047917137648e-05+j4.394925667031e-08
-1.047917124608e-05+j4.702873518715e-08
-1.047917109637e-05+j5.032398954734e-08
-1.047917092606e-05+j5.385013893829e-08
-1.047917073055e-05+j5.762336193461e-08
-1.047917050617e-05+j6.166097072561e-08
-1.047917024960e-05+j6.598149054639e-08
-1.047916995589e-05+j7.060474467838e-08
-1.047916961910e-05+j7.555194539819e-08
-1.047916923408e-05+j8.084579130453e-08
-1.047916879243e-05+j8.651057146406e-08
-1.047916828745e-05+j9.257227684999e-08
-1.047916770958e-05+j9.905871959906e-08
-1.047916704766e-05+j1.059996606133e-07
-1.047916628899e-05+j1.134269461132e-07
-1.047916542052e-05+j1.213746537480e-07
-1.047916442620e-05+j1.298792489481e-07
-1.047916328767e-05+j1.389797522462e-07
-1.047916198449e-05+j1.487179182949e-07
-1.047916049163e-05+j1.591384274570e-07
-1.047915878233e-05+j1.702890908007e-07
-1.047915682539e-05+j1.822210694632e-07
-1.047915458452e-05+j1.949891093877e-07
-1.047915201868e-05+j2.086517925105e-07
-1.047914908059e-05+j2.232718055355e-07
-1.047914571550e-05+j2.389162275722e-07
-1.047914186403e-05+j2.556568378640e-07
-1.047913745283e-05+j2.735704451872e-07
-1.047913240221e-05+j2.927392401885e-07
-1.047912661839e-05+j3.132511725524e-07
-1.047911999558e-05+j3.352003544779e-07
-1.047911241242e-05+j3.586874925318e-07
-1.047910372953e-05+j3.838203496497e-07
-1.047909378693e-05+j4.107142396236e-07
-1.047908240231e-05+j4.394925561302e-07
-1.047906936630e-05+j4.702873389092e-07
-1.047905443996e-05+j5.032398795867e-07
-1.047903734758e-05+j5.385013699292e-07
-1.047901777745e-05+j5.762335955081e-07
-1.047899536727e-05+j6.166096780522e-07
-1.047896970802e-05+j6.598148696687e-07
-1.047894032591e-05+j7.060474029299e-07
-1.047890668165e-05+j7.555194002527e-07
-1.047886815786e-05+j8.084578472129e-07
-1.047882404642e-05+j8.651056339696e-07
-1.047877353672e-05+j9.257226696560e-07
-1.047871569981e-05+j9.905870748941e-07
-1.047864947490e-05+j1.059996457764e-06
-1.047857364411e-05+j1.134269279338e-06
-1.047848681413e-05+j1.213746314712e-06
-1.047838738932e-05+j1.298792216546e-06
-1.047827354334e-05+j1.389797188028e-06
-1.047814318472e-05+j1.487178773178e-06
-1.047799391773e-05+j1.591383772504e-06
-1.047782299979e-05+j1.702890292836e-06
-1.047762729012e-05+j1.822209940889e-06
-1.047740319404e-05+j1.949890170320e-06
-1.047714659352e-05+j2.086516793455e-06
-1.047685277350e-05+j2.232716668781e-06
-1.047651633523e-05+j2.389160576780e-06
-1.047613109745e-05+j2.556566297041e-06
-1.047568998158e-05+j2.735701901269e-06
-1.047518488401e-05+j2.927389276679e-06
-1.047460652326e-05+j3.132507896191e-06
-1.047394427223e-05+j3.351998852891e-06
-1.047318596359e-05+j3.586869176411e-06
-1.047231766382e-05+j3.838196452513e-06
-1.047132342002e-05+j4.107133765275e-06
-1.047018496408e-05+j4.394914985976e-06
-1.046888137740e-05+j4.702860431387e-06
-1.046738870930e-05+j5.032382919136e-06
-1.046567953455e-05+j5.384994245825e-06
-1.046372244851e-05+j5.762312119078e-06
-1.046148149308e-05+j6.166067574680e-06
-1.045891549384e-05+j6.598112911561e-06
-1.045597730415e-05+j7.060430182447e-06
-1.045261293986e-05+j7.555140277753e-06
-1.044876058504e-05+j8.084512644340e-06
-1.044434946007e-05+j8.650975682319e-06
-1.043929851802e-05+j9.257127868757e-06
-1.043351495517e-05+j9.905749657224e-06
-1.042689250985e-05+j1.059981620642e-05
-1.041930950640e-05+j1.134251099717e-05
</dep>
<dep ac.v(outneg) frequency>
-9.999590595604e-01+j6.587026568969e-06
-9.999590595569e-01+j7.048572641770e-06
-9.999590595528e-01+j7.542458765894e-06
-9.999590595481e-01+j8.070950974963e-06
-9.999590595428e-01+j8.636474081212e-06
-9.999590595367e-01+j9.241622800930e-06
-9.999590595296e-01+j9.889173659474e-06
-9.999590595216e-01+j1.058209773043e-05
-9.999590595124e-01+j1.132357426740e-05
-9.999590595019e-01+j1.211700529098e-05
-9.999590594898e-01+j1.296603119779e-05
-9.999590594760e-01+j1.387454746322e-05
-9.999590594602e-01+j1.484672251459e-05
-9.999590594421e-01+j1.588701685654e-05
-9.999590594214e-01+j1.700020353662e-05
-9.999590593976e-01+j1.819139004483e-05
-9.999590593705e-01+j1.946604174766e-05
-9.999590593393e-01+j2.083000696414e-05
-9.999590593037e-01+j2.228954379888e-05
-9.999590592629e-01+j2.385134885536e-05
-9.999590592162e-01+j2.552258796105e-05
-9.999590591627e-01+j2.731092904548e-05
-9.999590591014e-01+j2.922457732199e-05
-9.999590590313e-01+j3.127231293464e-05
-9.999590589509e-01+j3.346353124300e-05
-9.999590588590e-01+j3.580828592968e-05
-9.999590587537e-01+j3.831733512832e-05
-9.999590586331e-01+j4.100219078373e-05
-9.999590584950e-01+j4.387517147065e-05
-9.999590583369e-01+j4.694945891348e-05
-9.999590581558e-01+j5.023915846627e-05
-9.999590579485e-01+j5.375936383044e-05
-9.999590577112e-01+j5.752622630730e-05
-9.999590574394e-01+j6.155702890291e-05
-9.999590571282e-01+j6.587026562550e-05
-9.999590567718e-01+j7.048572633905e-05
-9.999590563637e-01+j7.542458756258e-05
-9.999590558965e-01+j8.070950963157e-05
-9.999590553615e-01+j8.636474066745e-05
-9.999590547489e-01+j9.241622783204e-05
-9.999590540474e-01+j9.889173637755e-05
-9.999590532442e-01+j1.058209770382e-04
-9.999590523245e-01+j1.132357423479e-04
-9.999590512714e-01+j1.211700525103e-04
-9.999590500655e-01+j1.296603114883e-04
-9.999590486847e-01+j1.387454740324e-04
-9.999590471037e-01+j1.484672244110e-04
-9.999590452933e-01+j1.588701676649e-04
-9.999590432203e-01+j1.700020342628e-04
-9.999590408466e-01+j1.819138990963e-04
-9.999590381287e-01+j1.946604158201e-04
-9.999590350165e-01+j2.083000676117e-04
-9.999590314529e-01+j2.228954355019e-04
-9.999590273724e-01+j2.385134855064e-04
-9.999590227000e-01+j2.552258758768e-04
-9.999590173499e-01+j2.731092858800e-04
-9.999590112238e-01+j2.922457676145e-04
-9.999590042091e-01+j3.127231224782e-04
-9.999589961770e-01+j3.346353040145e-04
-9.999589869798e-01+j3.580828489855e-04
-9.999589764486e-01+j3.831733386490e-04
-9.999589643899e-01+j4.100218923568e-04
-9.999589505820e-01+j4.387516957386e-04
-9.999589347714e-01+j4.694945658938e-04
-9.999589166675e-01+j5.023915561860e-04
-9.999588959377e-01+j5.375936034124e-04
-9.999588722010e-01+j5.752622203205e-04
-9.999588450214e-01+j6.155702366455e-04
-9.999588138995e-01+j6.587025920704e-04
-9.999587782634e-01+j7.048571847463e-04
-9.999587374584e-01+j7.542457792646e-04
-9.999586907347e-01+j8.070949782463e-04
-9.999586372339e-01+j8.636472620065e-04
-9.999585759729e-01+j9.241621010617e-04
-9.999585058261e-01+j9.889171465839e-04
-9.999584255048e-01+j1.058209504261e-03
-9.999583335330e-01+j1.132357097407e-03
-9.999582282209e-01+j1.211700125573e-03
-9.999581076336e-01+j1.296602625348e-03
-9.999579695554e-01+j1.387454140506e-03
-9.999578114493e-01+j1.484671509165e-03
-9.999576304103e-01+j1.588700776136e-03
-9.999574231120e-01+j1.700019239247e-03
-9.999571857457e-01+j1.819137639013e-03
-9.999569139500e-01+j1.946602501684e-03
-9.999566027310e-01+j2.082998646420e-03
-9.999562463705e-01+j2.228951868072e-03
-9.999558383208e-01+j2.385131807857e-03
-9.999553710846e-01+j2.552255025088e-03
-9.999548360770e-01+j2.731088283997e-03
-9.999542234681e-01+j2.922452070731e-03
-9.999535220018e-01+j3.127224356582e-03
-9.999527187899e-01+j3.346344624679e-03
-9.999517990743e-01+j3.580818178555e-03
-9.999507459567e-01+j3.831720752262e-03
-9.999495400874e-01+j4.100203443105e-03
-9.999481593105e-01+j4.387497989488e-03
-9.999465782562e-01+j4.694922417958e-03
-9.999447678751e-01+j5.023887085159e-03
-9.999426949042e-01+j5.375901142202e-03
-9.999403212561e-01+j5.752579450844e-03
-9.999376033189e-01+j6.155649982859e-03
-9.999344911553e-01+j6.586961736156e-03
</dep>
<dep ac.v(outpos) frequency>
9.999797886489e-01-j2.165349255108e-06
9.999797886487e-01-j2.317073016125e-06
9.999797886484e-01-j2.479427902630e-06
9.999797886481e-01-j2.653158826485e-06
9.999797886477e-01-j2.839062894746e-06
9.999797886473e-01-j3.037993066929e-06
9.999797886468e-01-j3.250862068533e-06
9.999797886463e-01-j3.478646578779e-06
9.999797886457e-01-j3.722391711781e-06
9.999797886449e-01-j3.983215811709e-06
9.999797886441e-01-j4.262315583939e-06
9.999797886432e-01-j4.560971585743e-06
9.999797886421e-01-j4.880554101707e-06
9.999797886408e-01-j5.222529430822e-06
9.999797886394e-01-j5.588466614123e-06
9.999797886378e-01-j5.980044633709e-06
9.999797886359e-01-j6.399060116200e-06
9.999797886338e-01-j6.847435575971e-06
9.999797886314e-01-j7.327228235970e-06
9.999797886286e-01-j7.840639466607e-06
9.999797886254e-01-j8.390024886020e-06
9.999797886217e-01-j8.977905168049e-06
9.999797886175e-01-j9.606977607518e-06
9.999797886127e-01-j1.028012849588e-05
9.999797886072e-01-j1.100044636403e-05
9.999797886010e-01-j1.177123615297e-05
9.999797885937e-01-j1.259603437750e-05
9.999797885855e-01-j1.347862535229e-05
9.999797885760e-01-j1.442305855501e-05
9.999797885652e-01-j1.543366720599e-05
9.999797885528e-01-j1.651508814980e-05
9.999797885387e-01-j1.767228312983e-05
9.999797885224e-01-j1.891056155369e-05
9.999797885038e-01-j2.023560485362e-05
9.999797884825e-01-j2.165349255389e-05
9.999797884582e-01-j2.317073016469e-05
9.999797884302e-01-j2.479427903052e-05
9.999797883983e-01-j2.653158827002e-05
9.999797883617e-01-j2.839062895379e-05
9.999797883198e-01-j3.037993067705e-05
9.999797882718e-01-j3.250862069484e-05
9.999797882168e-01-j3.478646579944e-05
9.999797881539e-01-j3.722391713209e-05
9.999797880818e-01-j3.983215813459e-05
9.999797879993e-01-j4.262315586083e-05
9.999797879049e-01-j4.560971588370e-05
9.999797877967e-01-j4.880554104925e-05
9.999797876728e-01-j5.222529434766e-05
9.999797875310e-01-j5.588466618956e-05
9.999797873686e-01-j5.980044639629e-05
9.999797871826e-01-j6.399060123455e-05
9.999797869697e-01-j6.847435584860e-05
9.999797867259e-01-j7.327228246862e-05
9.999797864467e-01-j7.840639479952e-05
9.999797861271e-01-j8.390024902371e-05
9.999797857610e-01-j8.977905188084e-05
9.999797853419e-01-j9.606977632066e-05
9.999797848620e-01-j1.028012852596e-04
9.999797843124e-01-j1.100044640088e-04
9.999797836832e-01-j1.177123619813e-04
9.999797829627e-01-j1.259603443283e-04
9.999797821377e-01-j1.347862542009e-04
9.999797811930e-01-j1.442305863808e-04
9.999797801113e-01-j1.543366730778e-04
9.999797788727e-01-j1.651508827451e-04
9.999797774544e-01-j1.767228328263e-04
9.999797758304e-01-j1.891056174092e-04
9.999797739709e-01-j2.023560508303e-04
9.999797718416e-01-j2.165349283498e-04
9.999797694035e-01-j2.317073050911e-04
9.999797666117e-01-j2.479427945252e-04
9.999797634150e-01-j2.653158878709e-04
9.999797597547e-01-j2.839062958734e-04
9.999797555634e-01-j3.037993145333e-04
9.999797507642e-01-j3.250862164600e-04
9.999797452688e-01-j3.478646696488e-04
9.999797389764e-01-j3.722391856008e-04
9.999797317713e-01-j3.983215988427e-04
9.999797235211e-01-j4.262315800468e-04
9.999797140742e-01-j4.560971851052e-04
9.999797032571e-01-j4.880554426784e-04
9.999796908709e-01-j5.222529829133e-04
9.999796766882e-01-j5.588467102165e-04
9.999796604483e-01-j5.980045231696e-04
9.999796418529e-01-j6.399060848902e-04
9.999796205602e-01-j6.847436473736e-04
9.999795961791e-01-j7.327229335983e-04
9.999795682616e-01-j7.840640814431e-04
9.999795362946e-01-j8.390026537481e-04
9.999794996910e-01-j8.977907191550e-04
9.999794577780e-01-j9.606980086873e-04
9.999794097857e-01-j1.028013153379e-03
9.999793548322e-01-j1.100045008631e-03
9.999792919077e-01-j1.177124071381e-03
9.999792198562e-01-j1.259603996580e-03
9.999791373537e-01-j1.347863219952e-03
9.999790428844e-01-j1.442306694478e-03
9.999789347125e-01-j1.543367748580e-03
9.999788108504e-01-j1.651510074543e-03
9.999786690222e-01-j1.767229856300e-03
9.999785066220e-01-j1.891058046364e-03
9.999783206658e-01-j2.023562802358e-03
9.999781077368e-01-j2.165352094356e-03
</dep>
